  vcan0  100   [8]  90 01 00 00 00 00 00 00
  vcan0  101   [8]  B8 0B 00 00 00 00 00 00
  vcan0  102   [8]  C2 01 00 00 00 00 00 00
  vcan0  103   [8]  90 01 CC 01 00 00 00 00
  vcan0  104   [8]  40 01 18 01 2C 01 00 00
  vcan0  105   [8]  BF 03 00 00 00 00 00 00
  vcan0  106   [8]  00 00 00 00 00 00 00 00
  vcan0  107   [8]  F4 01 00 00 00 00 00 00
  vcan0  108   [8]  00 00 1D 00 E7 03 00 00
  vcan0  109   [8]  03 00 C7 00 00 00 00 00
  vcan0  101   [8]  BB 0B 00 00 00 00 00 00
  vcan0  108   [8]  01 00 1D 00 E7 03 00 00
  vcan0  109   [8]  0B 00 C7 00 00 00 00 00
  vcan0  100   [8]  90 01 00 00 00 00 00 00
  vcan0  101   [8]  BE 0B 00 00 00 00 00 00
  vcan0  106   [8]  01 00 00 00 00 00 00 00
  vcan0  108   [8]  02 00 1D 00 E7 03 00 00
  vcan0  109   [8]  13 00 C7 00 00 00 00 00
  vcan0  101   [8]  C1 0B 00 00 00 00 00 00
  vcan0  109   [8]  1B 00 C7 00 00 00 00 00
  vcan0  108   [8]  03 00 1D 00 E7 03 00 00
  vcan0  100   [8]  91 01 00 00 00 00 00 00
  vcan0  101   [8]  C5 0B 00 00 00 00 00 00
  vcan0  106   [8]  02 00 00 00 00 00 00 00
  vcan0  109   [8]  23 00 C7 00 00 00 00 00
  vcan0  108   [8]  04 00 1D 00 E7 03 00 00
  vcan0  101   [8]  C8 0B 00 00 00 00 00 00
  vcan0  109   [8]  2B 00 C7 00 00 00 00 00
  vcan0  108   [8]  05 00 1D 00 E7 03 00 00
  vcan0  100   [8]  91 01 00 00 00 00 00 00
  vcan0  106   [8]  04 00 00 00 00 00 00 00
  vcan0  101   [8]  CB 0B 00 00 00 00 00 00
  vcan0  109   [8]  32 00 C6 00 00 00 00 00
  vcan0  108   [8]  06 00 1D 00 E7 03 00 00
  vcan0  101   [8]  CE 0B 00 00 00 00 00 00
  vcan0  109   [8]  3A 00 C6 00 00 00 00 00
  vcan0  108   [8]  07 00 1D 00 E7 03 00 00
  vcan0  100   [8]  92 01 00 00 00 00 00 00
  vcan0  106   [8]  05 00 00 00 00 00 00 00
  vcan0  101   [8]  D1 0B 00 00 00 00 00 00
  vcan0  108   [8]  08 00 1D 00 E7 03 00 00
  vcan0  109   [8]  42 00 C6 00 00 00 00 00
  vcan0  101   [8]  D4 0B 00 00 00 00 00 00
  vcan0  108   [8]  09 00 1D 00 E7 03 00 00
  vcan0  109   [8]  4A 00 C5 00 00 00 00 00
  vcan0  102   [8]  C2 01 00 00 00 00 00 00
  vcan0  103   [8]  90 01 CC 01 00 00 00 00
  vcan0  104   [8]  40 01 18 01 2C 01 00 00
  vcan0  100   [8]  93 01 00 00 00 00 00 00
  vcan0  105   [8]  BF 03 00 00 00 00 00 00
  vcan0  107   [8]  F4 01 00 00 00 00 00 00
  vcan0  106   [8]  07 00 00 00 00 00 00 00
  vcan0  101   [8]  D7 0B 00 00 00 00 00 00
  vcan0  109   [8]  52 00 C5 00 00 00 00 00
  vcan0  108   [8]  0A 00 1D 00 E7 03 00 00
  vcan0  101   [8]  DB 0B 00 00 00 00 00 00
  vcan0  109   [8]  59 00 C4 00 00 00 00 00
  vcan0  108   [8]  0B 00 1D 00 E7 03 00 00
  vcan0  100   [8]  93 01 00 00 00 00 00 00
  vcan0  106   [8]  08 00 00 00 00 00 00 00
  vcan0  101   [8]  DE 0B 00 00 00 00 00 00
  vcan0  109   [8]  61 00 C4 00 00 00 00 00
  vcan0  108   [8]  0D 00 1C 00 E7 03 00 00
  vcan0  101   [8]  E1 0B 00 00 00 00 00 00
  vcan0  109   [8]  69 00 C3 00 00 00 00 00
  vcan0  108   [8]  0E 00 1C 00 E7 03 00 00
  vcan0  100   [8]  94 01 00 00 00 00 00 00
  vcan0  106   [8]  09 00 00 00 00 00 00 00
  vcan0  101   [8]  E4 0B 00 00 00 00 00 00
  vcan0  108   [8]  0F 00 1C 00 E7 03 00 00
  vcan0  109   [8]  71 00 C2 00 00 00 00 00
  vcan0  101   [8]  E7 0B 00 00 00 00 00 00
  vcan0  108   [8]  10 00 1C 00 E7 03 00 00
  vcan0  109   [8]  79 00 C2 00 00 00 00 00
  vcan0  100   [8]  94 01 00 00 00 00 00 00
  vcan0  106   [8]  0B 00 00 00 00 00 00 00
  vcan0  101   [8]  EA 0B 00 00 00 00 00 00
  vcan0  108   [8]  10 00 1C 00 E7 03 00 00
  vcan0  109   [8]  80 00 C1 00 00 00 00 00
  vcan0  101   [8]  ED 0B 00 00 00 00 00 00
  vcan0  108   [8]  12 00 1B 00 E7 03 00 00
  vcan0  100   [8]  95 01 00 00 00 00 00 00
  vcan0  109   [8]  88 00 C0 00 00 00 00 00
  vcan0  106   [8]  0C 00 00 00 00 00 00 00
  vcan0  101   [8]  F0 0B 00 00 00 00 00 00
  vcan0  109   [8]  90 00 BF 00 00 00 00 00
  vcan0  108   [8]  13 00 1B 00 E7 03 00 00
  vcan0  101   [8]  F4 0B 00 00 00 00 00 00
  vcan0  102   [8]  C2 01 00 00 00 00 00 00
  vcan0  103   [8]  90 01 CC 01 00 00 00 00
  vcan0  104   [8]  40 01 18 01 2C 01 00 00
  vcan0  105   [8]  BF 03 00 00 00 00 00 00
  vcan0  107   [8]  F4 01 00 00 00 00 00 00
  vcan0  100   [8]  96 01 00 00 00 00 00 00
  vcan0  109   [8]  97 00 BE 00 00 00 00 00
  vcan0  108   [8]  14 00 1B 00 E7 03 00 00
  vcan0  106   [8]  0D 00 00 00 00 00 00 00
  vcan0  101   [8]  F7 0B 00 00 00 00 00 00
  vcan0  109   [8]  9F 00 BD 00 00 00 00 00
  vcan0  108   [8]  14 00 1B 00 E7 03 00 00
  vcan0  101   [8]  FA 0B 00 00 00 00 00 00
  vcan0  100   [8]  96 01 00 00 00 00 00 00
  vcan0  109   [8]  A6 00 BC 00 00 00 00 00
  vcan0  108   [8]  15 00 1A 00 E7 03 00 00
  vcan0  106   [8]  0F 00 00 00 00 00 00 00
  vcan0  101   [8]  FD 0B 00 00 00 00 00 00
  vcan0  108   [8]  16 00 1A 00 E7 03 00 00
  vcan0  109   [8]  AD 00 BB 00 00 00 00 00
  vcan0  101   [8]  00 0C 00 00 00 00 00 00
  vcan0  100   [8]  97 01 00 00 00 00 00 00
  vcan0  109   [8]  B5 00 BA 00 00 00 00 00
  vcan0  108   [8]  17 00 1A 00 E7 03 00 00
  vcan0  106   [8]  10 00 00 00 00 00 00 00
  vcan0  101   [8]  03 0C 00 00 00 00 00 00
  vcan0  109   [8]  BC 00 B9 00 00 00 00 00
  vcan0  108   [8]  18 00 1A 00 E7 03 00 00
  vcan0  101   [8]  07 0C 00 00 00 00 00 00
  vcan0  100   [8]  97 01 00 00 00 00 00 00
  vcan0  106   [8]  11 00 00 00 00 00 00 00
  vcan0  108   [8]  19 00 19 00 E7 03 00 00
  vcan0  109   [8]  C4 00 B7 00 00 00 00 00
  vcan0  101   [8]  0A 0C 00 00 00 00 00 00
  vcan0  109   [8]  CB 00 B6 00 00 00 00 00
  vcan0  108   [8]  1A 00 19 00 E7 03 00 00
  vcan0  101   [8]  0D 0C 00 00 00 00 00 00
  vcan0  100   [8]  98 01 00 00 00 00 00 00
  vcan0  106   [8]  13 00 00 00 00 00 00 00
  vcan0  109   [8]  D2 00 B5 00 00 00 00 00
  vcan0  108   [8]  1B 00 19 00 E7 03 00 00
  vcan0  101   [8]  10 0C 00 00 00 00 00 00
  vcan0  109   [8]  D9 00 B4 00 00 00 00 00
  vcan0  108   [8]  1C 00 18 00 E7 03 00 00
  vcan0  102   [8]  C3 01 00 00 00 00 00 00
  vcan0  103   [8]  90 01 CC 01 00 00 00 00
  vcan0  104   [8]  40 01 18 01 2C 01 00 00
  vcan0  105   [8]  BF 03 00 00 00 00 00 00
  vcan0  101   [8]  13 0C 00 00 00 00 00 00
  vcan0  107   [8]  F5 01 00 00 00 00 00 00
  vcan0  100   [8]  99 01 00 00 00 00 00 00
  vcan0  106   [8]  14 00 00 00 00 00 00 00
  vcan0  109   [8]  E0 00 B2 00 00 00 00 00
  vcan0  108   [8]  1D 00 18 00 E7 03 00 00
  vcan0  101   [8]  16 0C 00 00 00 00 00 00
  vcan0  108   [8]  1D 00 18 00 E7 03 00 00
  vcan0  109   [8]  E7 00 B1 00 00 00 00 00
  vcan0  101   [8]  1A 0C 00 00 00 00 00 00
  vcan0  100   [8]  99 01 00 00 00 00 00 00
  vcan0  106   [8]  15 00 00 00 00 00 00 00
  vcan0  108   [8]  1E 00 17 00 E7 03 00 00
  vcan0  109   [8]  EE 00 AF 00 00 00 00 00
  vcan0  101   [8]  1D 0C 00 00 00 00 00 00
  vcan0  108   [8]  1F 00 17 00 E7 03 00 00
  vcan0  109   [8]  F5 00 AE 00 00 00 00 00
  vcan0  100   [8]  9A 01 00 00 00 00 00 00
  vcan0  101   [8]  20 0C 00 00 00 00 00 00
  vcan0  106   [8]  17 00 00 00 00 00 00 00
  vcan0  108   [8]  20 00 16 00 E7 03 00 00
  vcan0  109   [8]  FB 00 AC 00 00 00 00 00
  vcan0  101   [8]  23 0C 00 00 00 00 00 00
  vcan0  108   [8]  21 00 16 00 E7 03 00 00
  vcan0  109   [8]  02 01 AB 00 00 00 00 00
  vcan0  100   [8]  9B 01 00 00 00 00 00 00
  vcan0  101   [8]  26 0C 00 00 00 00 00 00
  vcan0  106   [8]  18 00 00 00 00 00 00 00
  vcan0  109   [8]  09 01 A9 00 00 00 00 00
  vcan0  108   [8]  21 00 16 00 E7 03 00 00
  vcan0  101   [8]  29 0C 00 00 00 00 00 00
  vcan0  108   [8]  22 00 15 00 E7 03 00 00
  vcan0  109   [8]  10 01 A7 00 00 00 00 00
  vcan0  100   [8]  9B 01 00 00 00 00 00 00
  vcan0  101   [8]  2D 0C 00 00 00 00 00 00
  vcan0  106   [8]  1A 00 00 00 00 00 00 00
  vcan0  109   [8]  16 01 A6 00 00 00 00 00
  vcan0  108   [8]  23 00 15 00 E7 03 00 00
  vcan0  101   [8]  30 0C 00 00 00 00 00 00
  vcan0  102   [8]  C3 01 00 00 00 00 00 00
  vcan0  103   [8]  90 01 CC 01 00 00 00 00
  vcan0  104   [8]  40 01 18 01 2C 01 00 00
  vcan0  105   [8]  BF 03 00 00 00 00 00 00
  vcan0  108   [8]  24 00 14 00 E7 03 00 00
  vcan0  109   [8]  1D 01 A4 00 00 00 00 00
  vcan0  107   [8]  F5 01 00 00 00 00 00 00
  vcan0  100   [8]  9C 01 00 00 00 00 00 00
  vcan0  101   [8]  33 0C 00 00 00 00 00 00
  vcan0  106   [8]  1B 00 00 00 00 00 00 00
  vcan0  108   [8]  24 00 14 00 E7 03 00 00
  vcan0  109   [8]  24 01 A2 00 00 00 00 00
  vcan0  101   [8]  36 0C 00 00 00 00 00 00
  vcan0  108   [8]  25 00 13 00 E7 03 00 00
  vcan0  109   [8]  2A 01 A0 00 00 00 00 00
  vcan0  100   [8]  9C 01 00 00 00 00 00 00
  vcan0  101   [8]  39 0C 00 00 00 00 00 00
  vcan0  106   [8]  1C 00 00 00 00 00 00 00
  vcan0  109   [8]  31 01 9E 00 00 00 00 00
  vcan0  108   [8]  26 00 13 00 E7 03 00 00
  vcan0  101   [8]  3C 0C 00 00 00 00 00 00
  vcan0  108   [8]  27 00 12 00 E7 03 00 00
  vcan0  109   [8]  37 01 9C 00 00 00 00 00
  vcan0  100   [8]  9D 01 00 00 00 00 00 00
  vcan0  106   [8]  1E 00 00 00 00 00 00 00
  vcan0  101   [8]  3F 0C 00 00 00 00 00 00
  vcan0  108   [8]  27 00 12 00 E7 03 00 00
  vcan0  109   [8]  3D 01 9A 00 00 00 00 00
  vcan0  101   [8]  42 0C 00 00 00 00 00 00
  vcan0  108   [8]  28 00 11 00 E7 03 00 00
  vcan0  109   [8]  43 01 98 00 00 00 00 00
  vcan0  100   [8]  9E 01 00 00 00 00 00 00
  vcan0  106   [8]  1F 00 00 00 00 00 00 00
  vcan0  101   [8]  45 0C 00 00 00 00 00 00
  vcan0  109   [8]  49 01 96 00 00 00 00 00
  vcan0  108   [8]  28 00 11 00 E7 03 00 00
  vcan0  101   [8]  49 0C 00 00 00 00 00 00
  vcan0  108   [8]  29 00 10 00 E7 03 00 00
  vcan0  109   [8]  4F 01 94 00 00 00 00 00
  vcan0  100   [8]  9E 01 00 00 00 00 00 00
  vcan0  106   [8]  20 00 00 00 00 00 00 00
  vcan0  101   [8]  4C 0C 00 00 00 00 00 00
  vcan0  108   [8]  2A 00 10 00 E7 03 00 00
  vcan0  109   [8]  55 01 92 00 00 00 00 00
  vcan0  103   [8]  90 01 CC 01 00 00 00 00
  vcan0  102   [8]  C3 01 00 00 00 00 00 00
  vcan0  104   [8]  41 01 19 01 2D 01 00 00
  vcan0  105   [8]  BF 03 00 00 00 00 00 00
  vcan0  101   [8]  4F 0C 00 00 00 00 00 00
  vcan0  107   [8]  F6 01 00 00 00 00 00 00
  vcan0  100   [8]  9F 01 00 00 00 00 00 00
  vcan0  108   [8]  2A 00 0F 00 E7 03 00 00
  vcan0  109   [8]  5B 01 8F 00 00 00 00 00
  vcan0  106   [8]  22 00 00 00 00 00 00 00
  vcan0  101   [8]  52 0C 00 00 00 00 00 00
  vcan0  108   [8]  2B 00 0F 00 E7 03 00 00
  vcan0  109   [8]  60 01 8D 00 00 00 00 00
  vcan0  101   [8]  55 0C 00 00 00 00 00 00
  vcan0  100   [8]  9F 01 00 00 00 00 00 00
  vcan0  108   [8]  2B 00 0E 00 E7 03 00 00
  vcan0  109   [8]  66 01 8B 00 00 00 00 00
  vcan0  106   [8]  23 00 00 00 00 00 00 00
  vcan0  101   [8]  58 0C 00 00 00 00 00 00
  vcan0  109   [8]  6B 01 89 00 00 00 00 00
  vcan0  108   [8]  2C 00 0D 00 E7 03 00 00
  vcan0  101   [8]  5B 0C 00 00 00 00 00 00
  vcan0  100   [8]  A0 01 00 00 00 00 00 00
  vcan0  108   [8]  2C 00 0D 00 E7 03 00 00
  vcan0  109   [8]  71 01 86 00 00 00 00 00
  vcan0  106   [8]  24 00 00 00 00 00 00 00
  vcan0  101   [8]  5E 0C 00 00 00 00 00 00
  vcan0  109   [8]  76 01 84 00 00 00 00 00
  vcan0  108   [8]  2D 00 0C 00 E7 03 00 00
  vcan0  101   [8]  61 0C 00 00 00 00 00 00
  vcan0  100   [8]  A1 01 00 00 00 00 00 00
  vcan0  109   [8]  7B 01 82 00 00 00 00 00
  vcan0  108   [8]  2D 00 0C 00 E7 03 00 00
  vcan0  106   [8]  26 00 00 00 00 00 00 00
  vcan0  101   [8]  64 0C 00 00 00 00 00 00
  vcan0  109   [8]  80 01 7F 00 00 00 00 00
  vcan0  108   [8]  2E 00 0B 00 E7 03 00 00
  vcan0  101   [8]  67 0C 00 00 00 00 00 00
  vcan0  100   [8]  A1 01 00 00 00 00 00 00
  vcan0  106   [8]  27 00 00 00 00 00 00 00
  vcan0  108   [8]  2E 00 0B 00 E7 03 00 00
  vcan0  109   [8]  85 01 7D 00 00 00 00 00
  vcan0  101   [8]  6A 0C 00 00 00 00 00 00
  vcan0  103   [8]  91 01 CD 01 00 00 00 00
  vcan0  102   [8]  C4 01 00 00 00 00 00 00
  vcan0  104   [8]  41 01 19 01 2D 01 00 00
  vcan0  105   [8]  BF 03 00 00 00 00 00 00
  vcan0  108   [8]  2E 00 0A 00 E7 03 00 00
  vcan0  109   [8]  8A 01 7A 00 00 00 00 00
  vcan0  107   [8]  F6 01 00 00 00 00 00 00
  vcan0  101   [8]  6D 0C 00 00 00 00 00 00
  vcan0  100   [8]  A2 01 00 00 00 00 00 00
  vcan0  106   [8]  28 00 00 00 00 00 00 00
  vcan0  109   [8]  8F 01 78 00 00 00 00 00
  vcan0  108   [8]  2F 00 09 00 E7 03 00 00
  vcan0  101   [8]  70 0C 00 00 00 00 00 00
  vcan0  108   [8]  2F 00 09 00 E7 03 00 00
  vcan0  109   [8]  94 01 75 00 00 00 00 00
  vcan0  101   [8]  73 0C 00 00 00 00 00 00
  vcan0  100   [8]  A2 01 00 00 00 00 00 00
  vcan0  106   [8]  2A 00 00 00 00 00 00 00
  vcan0  109   [8]  98 01 73 00 00 00 00 00
  vcan0  108   [8]  2F 00 08 00 E7 03 00 00
  vcan0  101   [8]  76 0C 00 00 00 00 00 00
  vcan0  109   [8]  9D 01 70 00 00 00 00 00
  vcan0  108   [8]  30 00 08 00 E7 03 00 00
  vcan0  101   [8]  7A 0C 00 00 00 00 00 00
  vcan0  100   [8]  A3 01 00 00 00 00 00 00
  vcan0  106   [8]  2B 00 00 00 00 00 00 00
  vcan0  109   [8]  A1 01 6E 00 00 00 00 00
  vcan0  108   [8]  30 00 07 00 E7 03 00 00
  vcan0  101   [8]  7D 0C 00 00 00 00 00 00
  vcan0  108   [8]  30 00 06 00 E7 03 00 00
  vcan0  109   [8]  A5 01 6B 00 00 00 00 00
  vcan0  101   [8]  80 0C 00 00 00 00 00 00
  vcan0  100   [8]  A4 01 00 00 00 00 00 00
  vcan0  106   [8]  2C 00 00 00 00 00 00 00
  vcan0  101   [8]  83 0C 00 00 00 00 00 00
  vcan0  109   [8]  A9 01 68 00 00 00 00 00
  vcan0  108   [8]  30 00 06 00 E7 03 00 00
  vcan0  101   [8]  86 0C 00 00 00 00 00 00
  vcan0  109   [8]  AE 01 66 00 00 00 00 00
  vcan0  108   [8]  31 00 05 00 E7 03 00 00
  vcan0  100   [8]  A4 01 00 00 00 00 00 00
  vcan0  106   [8]  2E 00 00 00 00 00 00 00
  vcan0  109   [8]  B2 01 63 00 00 00 00 00
  vcan0  101   [8]  89 0C 00 00 00 00 00 00
  vcan0  108   [8]  31 00 05 00 E7 03 00 00
  vcan0  103   [8]  91 01 CD 01 00 00 00 00
  vcan0  102   [8]  C4 01 00 00 00 00 00 00
  vcan0  104   [8]  41 01 19 01 2D 01 00 00
  vcan0  105   [8]  BF 03 00 00 00 00 00 00
  vcan0  107   [8]  F7 01 00 00 00 00 00 00
  vcan0  109   [8]  B5 01 60 00 00 00 00 00
  vcan0  108   [8]  31 00 04 00 E7 03 00 00
  vcan0  101   [8]  8C 0C 00 00 00 00 00 00
  vcan0  100   [8]  A5 01 00 00 00 00 00 00
  vcan0  106   [8]  2F 00 00 00 00 00 00 00
  vcan0  109   [8]  B9 01 5D 00 00 00 00 00
  vcan0  108   [8]  31 00 03 00 E7 03 00 00
  vcan0  101   [8]  8F 0C 00 00 00 00 00 00
  vcan0  108   [8]  31 00 03 00 E7 03 00 00
  vcan0  101   [8]  93 0C 00 00 00 00 00 00
  vcan0  109   [8]  BD 01 5B 00 00 00 00 00
  vcan0  100   [8]  A6 01 00 00 00 00 00 00
  vcan0  106   [8]  30 00 00 00 00 00 00 00
  vcan0  108   [8]  31 00 02 00 E7 03 00 00
  vcan0  109   [8]  C0 01 58 00 00 00 00 00
  vcan0  101   [8]  96 0C 00 00 00 00 00 00
  vcan0  108   [8]  31 00 01 00 E7 03 00 00
  vcan0  109   [8]  C4 01 55 00 00 00 00 00
  vcan0  101   [8]  99 0C 00 00 00 00 00 00
  vcan0  100   [8]  A6 01 00 00 00 00 00 00
  vcan0  106   [8]  32 00 00 00 00 00 00 00
  vcan0  101   [8]  9C 0C 00 00 00 00 00 00
  vcan0  108   [8]  31 00 01 00 E7 03 00 00
  vcan0  109   [8]  C7 01 52 00 00 00 00 00
  vcan0  101   [8]  9F 0C 00 00 00 00 00 00
  vcan0  109   [8]  CA 01 4F 00 00 00 00 00
  vcan0  108   [8]  31 00 00 00 E7 03 00 00
  vcan0  100   [8]  A7 01 00 00 00 00 00 00
  vcan0  106   [8]  33 00 00 00 00 00 00 00
  vcan0  109   [8]  CD 01 4C 00 00 00 00 00
  vcan0  108   [8]  31 00 00 00 E7 03 00 00
  vcan0  101   [8]  A2 0C 00 00 00 00 00 00
  vcan0  108   [8]  31 00 00 00 E7 03 00 00
  vcan0  101   [8]  A6 0C 00 00 00 00 00 00
  vcan0  109   [8]  D1 01 49 00 00 00 00 00
  vcan0  100   [8]  A7 01 00 00 00 00 00 00
  vcan0  106   [8]  34 00 00 00 00 00 00 00
  vcan0  103   [8]  91 01 CD 01 00 00 00 00
  vcan0  102   [8]  C4 01 00 00 00 00 00 00
  vcan0  104   [8]  41 01 19 01 2D 01 00 00
  vcan0  105   [8]  BF 03 00 00 00 00 00 00
  vcan0  108   [8]  31 00 FF FF E7 03 00 00
  vcan0  109   [8]  D3 01 46 00 00 00 00 00
  vcan0  101   [8]  A9 0C 00 00 00 00 00 00
  vcan0  107   [8]  F7 01 00 00 00 00 00 00
  vcan0  109   [8]  D6 01 43 00 00 00 00 00
  vcan0  101   [8]  AC 0C 00 00 00 00 00 00
  vcan0  108   [8]  31 00 FF FF E7 03 00 00
  vcan0  100   [8]  A8 01 00 00 00 00 00 00
  vcan0  106   [8]  35 00 00 00 00 00 00 00
  vcan0  109   [8]  D9 01 40 00 00 00 00 00
  vcan0  108   [8]  31 00 FE FF E7 03 00 00
  vcan0  101   [8]  AF 0C 00 00 00 00 00 00
  vcan0  100   [8]  A9 01 00 00 00 00 00 00
  vcan0  108   [8]  31 00 FD FF E7 03 00 00
  vcan0  101   [8]  B2 0C 00 00 00 00 00 00
  vcan0  109   [8]  DB 01 3D 00 00 00 00 00
  vcan0  106   [8]  37 00 00 00 00 00 00 00
  vcan0  108   [8]  31 00 FD FF E7 03 00 00
  vcan0  109   [8]  DE 01 3A 00 00 00 00 00
  vcan0  101   [8]  B5 0C 00 00 00 00 00 00
  vcan0  100   [8]  A9 01 00 00 00 00 00 00
  vcan0  108   [8]  31 00 FC FF E7 03 00 00
  vcan0  101   [8]  B8 0C 00 00 00 00 00 00
  vcan0  109   [8]  E0 01 37 00 00 00 00 00
  vcan0  106   [8]  38 00 00 00 00 00 00 00
  vcan0  109   [8]  E2 01 34 00 00 00 00 00
  vcan0  108   [8]  31 00 FB FF E7 03 00 00
  vcan0  101   [8]  BB 0C 00 00 00 00 00 00
  vcan0  100   [8]  AA 01 00 00 00 00 00 00
  vcan0  109   [8]  E4 01 31 00 00 00 00 00
  vcan0  106   [8]  39 00 00 00 00 00 00 00
  vcan0  108   [8]  31 00 FB FF E7 03 00 00
  vcan0  101   [8]  BF 0C 00 00 00 00 00 00
  vcan0  109   [8]  E6 01 2E 00 00 00 00 00
  vcan0  108   [8]  30 00 FA FF E7 03 00 00
  vcan0  101   [8]  C2 0C 00 00 00 00 00 00
  vcan0  100   [8]  AA 01 00 00 00 00 00 00
  vcan0  106   [8]  3B 00 00 00 00 00 00 00
  vcan0  109   [8]  E8 01 2B 00 00 00 00 00
  vcan0  108   [8]  30 00 FA FF E7 03 00 00
  vcan0  101   [8]  C5 0C 00 00 00 00 00 00
  vcan0  103   [8]  91 01 CD 01 00 00 00 00
  vcan0  104   [8]  41 01 19 01 2D 01 00 00
  vcan0  105   [8]  BF 03 00 00 00 00 00 00
  vcan0  102   [8]  C5 01 00 00 00 00 00 00
  vcan0  107   [8]  F8 01 00 00 00 00 00 00
  vcan0  109   [8]  E9 01 28 00 00 00 00 00
  vcan0  101   [8]  C8 0C 00 00 00 00 00 00
  vcan0  108   [8]  30 00 F9 FF E7 03 00 00
  vcan0  100   [8]  AB 01 00 00 00 00 00 00
  vcan0  106   [8]  3C 00 00 00 00 00 00 00
  vcan0  109   [8]  EB 01 25 00 00 00 00 00
  vcan0  101   [8]  CB 0C 00 00 00 00 00 00
  vcan0  108   [8]  30 00 F8 FF E7 03 00 00
  vcan0  109   [8]  EC 01 22 00 00 00 00 00
  vcan0  101   [8]  CE 0C 00 00 00 00 00 00
  vcan0  108   [8]  2F 00 F8 FF E7 03 00 00
  vcan0  100   [8]  AC 01 00 00 00 00 00 00
  vcan0  106   [8]  3D 00 00 00 00 00 00 00
  vcan0  108   [8]  2F 00 F7 FF E7 03 00 00
  vcan0  109   [8]  EE 01 1E 00 00 00 00 00
  vcan0  101   [8]  D1 0C 00 00 00 00 00 00
  vcan0  109   [8]  EF 01 1B 00 00 00 00 00
  vcan0  101   [8]  D4 0C 00 00 00 00 00 00
  vcan0  108   [8]  2F 00 F7 FF E7 03 00 00
  vcan0  100   [8]  AC 01 00 00 00 00 00 00
  vcan0  106   [8]  3F 00 00 00 00 00 00 00
  vcan0  109   [8]  F0 01 18 00 00 00 00 00
  vcan0  101   [8]  D7 0C 00 00 00 00 00 00
  vcan0  108   [8]  2E 00 F6 FF E7 03 00 00
  vcan0  109   [8]  F1 01 15 00 00 00 00 00
  vcan0  101   [8]  DA 0C 00 00 00 00 00 00
  vcan0  108   [8]  2E 00 F5 FF E7 03 00 00
  vcan0  100   [8]  AD 01 00 00 00 00 00 00
  vcan0  106   [8]  40 00 00 00 00 00 00 00
  vcan0  109   [8]  F1 01 12 00 00 00 00 00
  vcan0  108   [8]  2E 00 F5 FF E7 03 00 00
  vcan0  101   [8]  DE 0C 00 00 00 00 00 00
  vcan0  108   [8]  2D 00 F4 FF E7 03 00 00
  vcan0  101   [8]  E1 0C 00 00 00 00 00 00
  vcan0  109   [8]  F2 01 0E 00 00 00 00 00
  vcan0  100   [8]  AD 01 00 00 00 00 00 00
  vcan0  106   [8]  41 00 00 00 00 00 00 00
  vcan0  104   [8]  42 01 1A 01 2E 01 00 00
  vcan0  103   [8]  91 01 CD 01 00 00 00 00
  vcan0  105   [8]  BF 03 00 00 00 00 00 00
  vcan0  102   [8]  C5 01 00 00 00 00 00 00
  vcan0  108   [8]  2D 00 F4 FF E7 03 00 00
  vcan0  101   [8]  E4 0C 00 00 00 00 00 00
  vcan0  109   [8]  F3 01 0B 00 00 00 00 00
  vcan0  107   [8]  F8 01 00 00 00 00 00 00
  vcan0  108   [8]  2C 00 F3 FF E7 03 00 00
  vcan0  109   [8]  F3 01 08 00 00 00 00 00
  vcan0  101   [8]  E7 0C 00 00 00 00 00 00
  vcan0  100   [8]  AE 01 00 00 00 00 00 00
  vcan0  106   [8]  42 00 00 00 00 00 00 00
  vcan0  108   [8]  2C 00 F2 FF E7 03 00 00
  vcan0  101   [8]  EA 0C 00 00 00 00 00 00
  vcan0  109   [8]  F3 01 05 00 00 00 00 00
  vcan0  109   [8]  F3 01 02 00 00 00 00 00
  vcan0  108   [8]  2B 00 F2 FF E7 03 00 00
  vcan0  101   [8]  ED 0C 00 00 00 00 00 00
  vcan0  100   [8]  AF 01 00 00 00 00 00 00
  vcan0  106   [8]  44 00 00 00 00 00 00 00
  vcan0  109   [8]  F3 01 00 00 00 00 00 00
  vcan0  108   [8]  2B 00 F1 FF E7 03 00 00
  vcan0  101   [8]  F0 0C 00 00 00 00 00 00
  vcan0  101   [8]  F3 0C 00 00 00 00 00 00
  vcan0  109   [8]  F3 01 FD FF 00 00 00 00
  vcan0  108   [8]  2A 00 F1 FF E7 03 00 00
  vcan0  100   [8]  AF 01 00 00 00 00 00 00
  vcan0  106   [8]  45 00 00 00 00 00 00 00
  vcan0  101   [8]  F6 0C 00 00 00 00 00 00
  vcan0  108   [8]  2A 00 F0 FF E7 03 00 00
  vcan0  109   [8]  F3 01 F9 FF 00 00 00 00
  vcan0  101   [8]  F9 0C 00 00 00 00 00 00
  vcan0  108   [8]  29 00 F0 FF E7 03 00 00
  vcan0  109   [8]  F3 01 F6 FF 00 00 00 00
  vcan0  100   [8]  B0 01 00 00 00 00 00 00
  vcan0  106   [8]  46 00 00 00 00 00 00 00
  vcan0  101   [8]  FD 0C 00 00 00 00 00 00
  vcan0  108   [8]  28 00 EF FF E7 03 00 00
  vcan0  109   [8]  F2 01 F3 FF 00 00 00 00
  vcan0  101   [8]  00 0D 00 00 00 00 00 00
  vcan0  108   [8]  28 00 EF FF E7 03 00 00
  vcan0  109   [8]  F2 01 F0 FF 00 00 00 00
  vcan0  100   [8]  B0 01 00 00 00 00 00 00
  vcan0  106   [8]  48 00 00 00 00 00 00 00
  vcan0  105   [8]  BF 03 00 00 00 00 00 00
  vcan0  102   [8]  C5 01 00 00 00 00 00 00
  vcan0  104   [8]  42 01 1A 01 2E 01 00 00
  vcan0  103   [8]  91 01 CD 01 00 00 00 00
  vcan0  107   [8]  F9 01 00 00 00 00 00 00
  vcan0  101   [8]  03 0D 00 00 00 00 00 00
  vcan0  108   [8]  27 00 EE FF E7 03 00 00
  vcan0  109   [8]  F1 01 ED FF 00 00 00 00
  vcan0  101   [8]  06 0D 00 00 00 00 00 00
  vcan0  108   [8]  27 00 EE FF E7 03 00 00
  vcan0  109   [8]  F0 01 EA FF 00 00 00 00
  vcan0  100   [8]  B1 01 00 00 00 00 00 00
  vcan0  106   [8]  49 00 00 00 00 00 00 00
  vcan0  101   [8]  09 0D 00 00 00 00 00 00
  vcan0  108   [8]  26 00 ED FF E7 03 00 00
  vcan0  109   [8]  EF 01 E7 FF 00 00 00 00
  vcan0  101   [8]  0C 0D 00 00 00 00 00 00
  vcan0  109   [8]  EE 01 E3 FF 00 00 00 00
  vcan0  108   [8]  25 00 ED FF E7 03 00 00
  vcan0  106   [8]  4A 00 00 00 00 00 00 00
  vcan0  100   [8]  B2 01 00 00 00 00 00 00
  vcan0  101   [8]  0F 0D 00 00 00 00 00 00
  vcan0  109   [8]  ED 01 E0 FF 00 00 00 00
  vcan0  108   [8]  24 00 EC FF E7 03 00 00
  vcan0  109   [8]  EC 01 DD FF 00 00 00 00
  vcan0  108   [8]  24 00 EC FF E7 03 00 00
  vcan0  101   [8]  12 0D 00 00 00 00 00 00
  vcan0  106   [8]  4B 00 00 00 00 00 00 00
  vcan0  100   [8]  B2 01 00 00 00 00 00 00
  vcan0  108   [8]  23 00 EB FF E7 03 00 00
  vcan0  101   [8]  15 0D 00 00 00 00 00 00
  vcan0  109   [8]  EA 01 DA FF 00 00 00 00
  vcan0  108   [8]  22 00 EB FF E7 03 00 00
  vcan0  109   [8]  E9 01 D7 FF 00 00 00 00
  vcan0  101   [8]  18 0D 00 00 00 00 00 00
  vcan0  106   [8]  4D 00 00 00 00 00 00 00
  vcan0  100   [8]  B3 01 00 00 00 00 00 00
  vcan0  109   [8]  E7 01 D4 FF 00 00 00 00
  vcan0  108   [8]  21 00 EA FF E7 03 00 00
  vcan0  101   [8]  1B 0D 00 00 00 00 00 00
  vcan0  100   [8]  B3 01 00 00 00 00 00 00
  vcan0  102   [8]  C6 01 00 00 00 00 00 00
  vcan0  103   [8]  92 01 CE 01 00 00 00 00
  vcan0  109   [8]  E5 01 D1 FF 00 00 00 00
  vcan0  101   [8]  1F 0D 00 00 00 00 00 00
  vcan0  105   [8]  BF 03 00 00 00 00 00 00
  vcan0  104   [8]  42 01 1A 01 2E 01 00 00
  vcan0  108   [8]  21 00 EA FF E7 03 00 00
  vcan0  106   [8]  4E 00 00 00 00 00 00 00
  vcan0  107   [8]  F9 01 00 00 00 00 00 00
  vcan0  101   [8]  22 0D 00 00 00 00 00 00
  vcan0  109   [8]  E3 01 CE FF 00 00 00 00
  vcan0  108   [8]  20 00 EA FF E7 03 00 00
  vcan0  100   [8]  B4 01 00 00 00 00 00 00
  vcan0  101   [8]  25 0D 00 00 00 00 00 00
  vcan0  109   [8]  E1 01 CB FF 00 00 00 00
  vcan0  106   [8]  4F 00 00 00 00 00 00 00
  vcan0  108   [8]  1F 00 E9 FF E7 03 00 00
  vcan0  101   [8]  28 0D 00 00 00 00 00 00
  vcan0  109   [8]  DF 01 C8 FF 00 00 00 00
  vcan0  108   [8]  1E 00 E9 FF E7 03 00 00
  vcan0  100   [8]  B5 01 00 00 00 00 00 00
  vcan0  106   [8]  50 00 00 00 00 00 00 00
  vcan0  109   [8]  DD 01 C5 FF 00 00 00 00
  vcan0  101   [8]  2B 0D 00 00 00 00 00 00
  vcan0  108   [8]  1D 00 E8 FF E7 03 00 00
  vcan0  109   [8]  DA 01 C2 FF 00 00 00 00
  vcan0  101   [8]  2E 0D 00 00 00 00 00 00
  vcan0  108   [8]  1D 00 E8 FF E7 03 00 00
  vcan0  100   [8]  B5 01 00 00 00 00 00 00
  vcan0  106   [8]  52 00 00 00 00 00 00 00
  vcan0  109   [8]  D8 01 BF FF 00 00 00 00
  vcan0  101   [8]  31 0D 00 00 00 00 00 00
  vcan0  108   [8]  1C 00 E8 FF E7 03 00 00
  vcan0  101   [8]  34 0D 00 00 00 00 00 00
  vcan0  108   [8]  1B 00 E7 FF E7 03 00 00
  vcan0  109   [8]  D5 01 BB FF 00 00 00 00
  vcan0  100   [8]  B6 01 00 00 00 00 00 00
  vcan0  106   [8]  53 00 00 00 00 00 00 00
  vcan0  101   [8]  37 0D 00 00 00 00 00 00
  vcan0  108   [8]  1A 00 E7 FF E7 03 00 00
  vcan0  109   [8]  D2 01 B8 FF 00 00 00 00
  vcan0  101   [8]  3A 0D 00 00 00 00 00 00
  vcan0  109   [8]  CF 01 B6 FF 00 00 00 00
  vcan0  108   [8]  19 00 E7 FF E7 03 00 00
  vcan0  105   [8]  BF 03 00 00 00 00 00 00
  vcan0  103   [8]  92 01 CE 01 00 00 00 00
  vcan0  104   [8]  42 01 1A 01 2E 01 00 00
  vcan0  102   [8]  C6 01 00 00 00 00 00 00
  vcan0  107   [8]  FA 01 00 00 00 00 00 00
  vcan0  100   [8]  B6 01 00 00 00 00 00 00
  vcan0  106   [8]  54 00 00 00 00 00 00 00
  vcan0  101   [8]  3D 0D 00 00 00 00 00 00
  vcan0  108   [8]  18 00 E6 FF E7 03 00 00
  vcan0  109   [8]  CC 01 B3 FF 00 00 00 00
  vcan0  101   [8]  40 0D 00 00 00 00 00 00
  vcan0  108   [8]  17 00 E6 FF E7 03 00 00
  vcan0  109   [8]  C9 01 B0 FF 00 00 00 00
  vcan0  100   [8]  B7 01 00 00 00 00 00 00
  vcan0  106   [8]  55 00 00 00 00 00 00 00
  vcan0  101   [8]  43 0D 00 00 00 00 00 00
  vcan0  108   [8]  16 00 E6 FF E7 03 00 00
  vcan0  109   [8]  C6 01 AD FF 00 00 00 00
  vcan0  101   [8]  46 0D 00 00 00 00 00 00
  vcan0  108   [8]  15 00 E6 FF E7 03 00 00
  vcan0  109   [8]  C3 01 AA FF 00 00 00 00
  vcan0  106   [8]  57 00 00 00 00 00 00 00
  vcan0  100   [8]  B8 01 00 00 00 00 00 00
  vcan0  101   [8]  49 0D 00 00 00 00 00 00
  vcan0  108   [8]  14 00 E5 FF E7 03 00 00
  vcan0  109   [8]  BF 01 A7 FF 00 00 00 00
  vcan0  101   [8]  4C 0D 00 00 00 00 00 00
  vcan0  108   [8]  13 00 E5 FF E7 03 00 00
  vcan0  109   [8]  BC 01 A5 FF 00 00 00 00
  vcan0  106   [8]  58 00 00 00 00 00 00 00
  vcan0  100   [8]  B8 01 00 00 00 00 00 00
  vcan0  101   [8]  4F 0D 00 00 00 00 00 00
  vcan0  109   [8]  B8 01 A2 FF 00 00 00 00
  vcan0  108   [8]  13 00 E5 FF E7 03 00 00
  vcan0  101   [8]  52 0D 00 00 00 00 00 00
  vcan0  109   [8]  B4 01 9F FF 00 00 00 00
  vcan0  108   [8]  12 00 E5 FF E7 03 00 00
  vcan0  106   [8]  59 00 00 00 00 00 00 00
  vcan0  100   [8]  B9 01 00 00 00 00 00 00
  vcan0  101   [8]  55 0D 00 00 00 00 00 00
  vcan0  109   [8]  B1 01 9C FF 00 00 00 00
  vcan0  108   [8]  11 00 E4 FF E7 03 00 00
  vcan0  101   [8]  58 0D 00 00 00 00 00 00
  vcan0  109   [8]  AD 01 9A FF 00 00 00 00
  vcan0  108   [8]  10 00 E4 FF E7 03 00 00
  vcan0  105   [8]  BF 03 00 00 00 00 00 00
  vcan0  104   [8]  42 01 1A 01 2E 01 00 00
  vcan0  103   [8]  92 01 CE 01 00 00 00 00
  vcan0  102   [8]  C6 01 00 00 00 00 00 00
  vcan0  107   [8]  FA 01 00 00 00 00 00 00
  vcan0  106   [8]  5A 00 00 00 00 00 00 00
  vcan0  100   [8]  B9 01 00 00 00 00 00 00
  vcan0  109   [8]  A8 01 97 FF 00 00 00 00
  vcan0  101   [8]  5B 0D 00 00 00 00 00 00
  vcan0  108   [8]  0F 00 E4 FF E7 03 00 00
  vcan0  109   [8]  A4 01 95 FF 00 00 00 00
  vcan0  101   [8]  5E 0D 00 00 00 00 00 00
  vcan0  108   [8]  0E 00 E4 FF E7 03 00 00
  vcan0  100   [8]  BA 01 00 00 00 00 00 00
  vcan0  106   [8]  5B 00 00 00 00 00 00 00
  vcan0  108   [8]  0D 00 E4 FF E7 03 00 00
  vcan0  109   [8]  A0 01 92 FF 00 00 00 00
  vcan0  101   [8]  61 0D 00 00 00 00 00 00
  vcan0  109   [8]  9B 01 8F FF 00 00 00 00
  vcan0  108   [8]  0C 00 E3 FF E7 03 00 00
  vcan0  101   [8]  64 0D 00 00 00 00 00 00
  vcan0  106   [8]  5D 00 00 00 00 00 00 00
  vcan0  100   [8]  BB 01 00 00 00 00 00 00
  vcan0  109   [8]  97 01 8D FF 00 00 00 00
  vcan0  108   [8]  0B 00 E3 FF E7 03 00 00
  vcan0  101   [8]  67 0D 00 00 00 00 00 00
  vcan0  109   [8]  92 01 8A FF 00 00 00 00
  vcan0  108   [8]  0A 00 E3 FF E7 03 00 00
  vcan0  101   [8]  6A 0D 00 00 00 00 00 00
  vcan0  106   [8]  5E 00 00 00 00 00 00 00
  vcan0  100   [8]  BB 01 00 00 00 00 00 00
  vcan0  109   [8]  8E 01 87 FF 00 00 00 00
  vcan0  108   [8]  08 00 E3 FF E7 03 00 00
  vcan0  101   [8]  6D 0D 00 00 00 00 00 00
  vcan0  109   [8]  89 01 85 FF 00 00 00 00
  vcan0  101   [8]  70 0D 00 00 00 00 00 00
  vcan0  108   [8]  07 00 E3 FF E7 03 00 00
  vcan0  106   [8]  5F 00 00 00 00 00 00 00
  vcan0  100   [8]  BC 01 00 00 00 00 00 00
  vcan0  109   [8]  84 01 82 FF 00 00 00 00
  vcan0  101   [8]  73 0D 00 00 00 00 00 00
  vcan0  108   [8]  06 00 E3 FF E7 03 00 00
  vcan0  105   [8]  BF 03 00 00 00 00 00 00
  vcan0  104   [8]  43 01 1B 01 2F 01 00 00
  vcan0  103   [8]  92 01 CE 01 00 00 00 00
  vcan0  107   [8]  FB 01 00 00 00 00 00 00
  vcan0  102   [8]  C7 01 00 00 00 00 00 00
  vcan0  109   [8]  7F 01 80 FF 00 00 00 00
  vcan0  101   [8]  76 0D 00 00 00 00 00 00
  vcan0  108   [8]  05 00 E3 FF E7 03 00 00
  vcan0  106   [8]  60 00 00 00 00 00 00 00
  vcan0  100   [8]  BC 01 00 00 00 00 00 00
  vcan0  109   [8]  7A 01 7E FF 00 00 00 00
  vcan0  108   [8]  04 00 E3 FF E7 03 00 00
  vcan0  101   [8]  79 0D 00 00 00 00 00 00
  vcan0  108   [8]  03 00 E3 FF E7 03 00 00
  vcan0  101   [8]  7C 0D 00 00 00 00 00 00
  vcan0  109   [8]  74 01 7B FF 00 00 00 00
  vcan0  106   [8]  61 00 00 00 00 00 00 00
  vcan0  100   [8]  BD 01 00 00 00 00 00 00
  vcan0  101   [8]  7F 0D 00 00 00 00 00 00
  vcan0  108   [8]  02 00 E3 FF E7 03 00 00
  vcan0  109   [8]  6F 01 79 FF 00 00 00 00
  vcan0  101   [8]  82 0D 00 00 00 00 00 00
  vcan0  108   [8]  01 00 E3 FF E7 03 00 00
  vcan0  109   [8]  6A 01 77 FF 00 00 00 00
  vcan0  106   [8]  63 00 00 00 00 00 00 00
  vcan0  100   [8]  BD 01 00 00 00 00 00 00
  vcan0  101   [8]  85 0D 00 00 00 00 00 00
  vcan0  109   [8]  64 01 74 FF 00 00 00 00
  vcan0  108   [8]  00 00 E3 FF E7 03 00 00
  vcan0  109   [8]  5E 01 72 FF 00 00 00 00
  vcan0  101   [8]  89 0D 00 00 00 00 00 00
  vcan0  108   [8]  00 00 E3 FF E7 03 00 00
  vcan0  100   [8]  BE 01 00 00 00 00 00 00
  vcan0  106   [8]  64 00 00 00 00 00 00 00
  vcan0  101   [8]  8B 0D 00 00 00 00 00 00
  vcan0  108   [8]  FF FF E3 FF E7 03 00 00
  vcan0  109   [8]  59 01 70 FF 00 00 00 00
  vcan0  101   [8]  8E 0D 00 00 00 00 00 00
  vcan0  109   [8]  53 01 6E FF 00 00 00 00
  vcan0  106   [8]  65 00 00 00 00 00 00 00
  vcan0  100   [8]  BF 01 00 00 00 00 00 00
  vcan0  108   [8]  FE FF E3 FF E7 03 00 00
  vcan0  109   [8]  4D 01 6B FF 00 00 00 00
  vcan0  108   [8]  FD FF E3 FF E7 03 00 00
  vcan0  101   [8]  92 0D 00 00 00 00 00 00
  vcan0  103   [8]  92 01 CE 01 00 00 00 00
  vcan0  104   [8]  43 01 1B 01 2F 01 00 00
  vcan0  102   [8]  C7 01 00 00 00 00 00 00
  vcan0  107   [8]  FB 01 00 00 00 00 00 00
  vcan0  105   [8]  BF 03 00 00 00 00 00 00
  vcan0  106   [8]  66 00 00 00 00 00 00 00
  vcan0  100   [8]  BF 01 00 00 00 00 00 00
  vcan0  109   [8]  47 01 69 FF 00 00 00 00
  vcan0  108   [8]  FC FF E3 FF E7 03 00 00
  vcan0  101   [8]  95 0D 00 00 00 00 00 00
  vcan0  109   [8]  41 01 67 FF 00 00 00 00
  vcan0  101   [8]  98 0D 00 00 00 00 00 00
  vcan0  108   [8]  FB FF E3 FF E7 03 00 00
  vcan0  106   [8]  67 00 00 00 00 00 00 00
  vcan0  100   [8]  C0 01 00 00 00 00 00 00
  vcan0  109   [8]  3B 01 65 FF 00 00 00 00
  vcan0  101   [8]  9B 0D 00 00 00 00 00 00
  vcan0  108   [8]  FA FF E3 FF E7 03 00 00
  vcan0  109   [8]  35 01 63 FF 00 00 00 00
  vcan0  108   [8]  F9 FF E3 FF E7 03 00 00
  vcan0  101   [8]  9E 0D 00 00 00 00 00 00
  vcan0  106   [8]  69 00 00 00 00 00 00 00
  vcan0  100   [8]  C0 01 00 00 00 00 00 00
  vcan0  109   [8]  2E 01 61 FF 00 00 00 00
  vcan0  101   [8]  A1 0D 00 00 00 00 00 00
  vcan0  108   [8]  F7 FF E3 FF E7 03 00 00
  vcan0  101   [8]  A4 0D 00 00 00 00 00 00
  vcan0  108   [8]  F6 FF E3 FF E7 03 00 00
  vcan0  109   [8]  27 01 5F FF 00 00 00 00
  vcan0  100   [8]  C1 01 00 00 00 00 00 00
  vcan0  106   [8]  6A 00 00 00 00 00 00 00
  vcan0  108   [8]  F5 FF E3 FF E7 03 00 00
  vcan0  109   [8]  21 01 5D FF 00 00 00 00
  vcan0  101   [8]  A7 0D 00 00 00 00 00 00
  vcan0  108   [8]  F4 FF E3 FF E7 03 00 00
  vcan0  109   [8]  1B 01 5C FF 00 00 00 00
  vcan0  101   [8]  AA 0D 00 00 00 00 00 00
  vcan0  106   [8]  6B 00 00 00 00 00 00 00
  vcan0  100   [8]  C2 01 00 00 00 00 00 00
  vcan0  108   [8]  F3 FF E4 FF E7 03 00 00
  vcan0  109   [8]  14 01 5A FF 00 00 00 00
  vcan0  101   [8]  AD 0D 00 00 00 00 00 00
  vcan0  103   [8]  92 01 CE 01 00 00 00 00
  vcan0  107   [8]  FC 01 00 00 00 00 00 00
  vcan0  104   [8]  43 01 1B 01 2F 01 00 00
  vcan0  105   [8]  BF 03 00 00 00 00 00 00
  vcan0  102   [8]  C7 01 00 00 00 00 00 00
  vcan0  108   [8]  F2 FF E4 FF E7 03 00 00
  vcan0  109   [8]  0D 01 58 FF 00 00 00 00
  vcan0  101   [8]  B0 0D 00 00 00 00 00 00
  vcan0  106   [8]  6C 00 00 00 00 00 00 00
  vcan0  100   [8]  C2 01 00 00 00 00 00 00
  vcan0  108   [8]  F1 FF E4 FF E7 03 00 00
  vcan0  101   [8]  B3 0D 00 00 00 00 00 00
  vcan0  109   [8]  07 01 56 FF 00 00 00 00
  vcan0  108   [8]  F0 FF E4 FF E7 03 00 00
  vcan0  101   [8]  B6 0D 00 00 00 00 00 00
  vcan0  109   [8]  00 01 55 FF 00 00 00 00
  vcan0  106   [8]  6D 00 00 00 00 00 00 00
  vcan0  100   [8]  C3 01 00 00 00 00 00 00
  vcan0  109   [8]  F9 00 53 FF 00 00 00 00
  vcan0  101   [8]  B9 0D 00 00 00 00 00 00
  vcan0  108   [8]  EF FF E4 FF E7 03 00 00
  vcan0  108   [8]  EE FF E5 FF E7 03 00 00
  vcan0  101   [8]  BC 0D 00 00 00 00 00 00
  vcan0  109   [8]  F2 00 52 FF 00 00 00 00
  vcan0  106   [8]  6E 00 00 00 00 00 00 00
  vcan0  100   [8]  C3 01 00 00 00 00 00 00
  vcan0  108   [8]  ED FF E5 FF E7 03 00 00
  vcan0  109   [8]  EB 00 50 FF 00 00 00 00
  vcan0  101   [8]  BF 0D 00 00 00 00 00 00
  vcan0  108   [8]  EC FF E5 FF E7 03 00 00
  vcan0  101   [8]  C2 0D 00 00 00 00 00 00
  vcan0  109   [8]  E4 00 4F FF 00 00 00 00
  vcan0  106   [8]  6F 00 00 00 00 00 00 00
  vcan0  100   [8]  C4 01 00 00 00 00 00 00
  vcan0  108   [8]  EB FF E5 FF E7 03 00 00
  vcan0  101   [8]  C5 0D 00 00 00 00 00 00
  vcan0  109   [8]  DD 00 4D FF 00 00 00 00
  vcan0  101   [8]  C8 0D 00 00 00 00 00 00
  vcan0  108   [8]  EA FF E6 FF E7 03 00 00
  vcan0  109   [8]  D5 00 4C FF 00 00 00 00
  vcan0  106   [8]  71 00 00 00 00 00 00 00
  vcan0  100   [8]  C4 01 00 00 00 00 00 00
  vcan0  108   [8]  E9 FF E6 FF E7 03 00 00
  vcan0  109   [8]  CE 00 4A FF 00 00 00 00
  vcan0  101   [8]  CB 0D 00 00 00 00 00 00
  vcan0  103   [8]  93 01 CF 01 00 00 00 00
  vcan0  107   [8]  FC 01 00 00 00 00 00 00
  vcan0  104   [8]  43 01 1B 01 2F 01 00 00
  vcan0  105   [8]  BF 03 00 00 00 00 00 00
  vcan0  102   [8]  C8 01 00 00 00 00 00 00
  vcan0  108   [8]  E8 FF E6 FF E7 03 00 00
  vcan0  101   [8]  CE 0D 00 00 00 00 00 00
  vcan0  109   [8]  C6 00 49 FF 00 00 00 00
  vcan0  106   [8]  72 00 00 00 00 00 00 00
  vcan0  100   [8]  C5 01 00 00 00 00 00 00
  vcan0  108   [8]  E8 FF E7 FF E7 03 00 00
  vcan0  101   [8]  D1 0D 00 00 00 00 00 00
  vcan0  109   [8]  BF 00 48 FF 00 00 00 00
  vcan0  101   [8]  D4 0D 00 00 00 00 00 00
  vcan0  109   [8]  B7 00 47 FF 00 00 00 00
  vcan0  108   [8]  E7 FF E7 FF E7 03 00 00
  vcan0  106   [8]  73 00 00 00 00 00 00 00
  vcan0  100   [8]  C6 01 00 00 00 00 00 00
  vcan0  109   [8]  B0 00 45 FF 00 00 00 00
  vcan0  101   [8]  D7 0D 00 00 00 00 00 00
  vcan0  108   [8]  E6 FF E7 FF E7 03 00 00
  vcan0  108   [8]  E5 FF E8 FF E7 03 00 00
  vcan0  109   [8]  A9 00 44 FF 00 00 00 00
  vcan0  101   [8]  DA 0D 00 00 00 00 00 00
  vcan0  100   [8]  C6 01 00 00 00 00 00 00
  vcan0  106   [8]  74 00 00 00 00 00 00 00
  vcan0  108   [8]  E4 FF E8 FF E7 03 00 00
  vcan0  109   [8]  A1 00 43 FF 00 00 00 00
  vcan0  101   [8]  DD 0D 00 00 00 00 00 00
  vcan0  100   [8]  C7 01 00 00 00 00 00 00
  vcan0  106   [8]  75 00 00 00 00 00 00 00
  vcan0  108   [8]  E3 FF E8 FF E7 03 00 00
  vcan0  101   [8]  E0 0D 00 00 00 00 00 00
  vcan0  109   [8]  9A 00 42 FF 00 00 00 00
  vcan0  108   [8]  E2 FF E9 FF E7 03 00 00
  vcan0  109   [8]  92 00 41 FF 00 00 00 00
  vcan0  101   [8]  E3 0D 00 00 00 00 00 00
  vcan0  106   [8]  76 00 00 00 00 00 00 00
  vcan0  100   [8]  C7 01 00 00 00 00 00 00
  vcan0  108   [8]  E1 FF E9 FF E7 03 00 00
  vcan0  109   [8]  8B 00 40 FF 00 00 00 00
  vcan0  101   [8]  E6 0D 00 00 00 00 00 00
  vcan0  107   [8]  FD 01 00 00 00 00 00 00
  vcan0  104   [8]  43 01 1B 01 2F 01 00 00
  vcan0  102   [8]  C8 01 00 00 00 00 00 00
  vcan0  105   [8]  BF 03 00 00 00 00 00 00
  vcan0  103   [8]  93 01 CF 01 00 00 00 00
  vcan0  108   [8]  E1 FF E9 FF E7 03 00 00
  vcan0  101   [8]  E9 0D 00 00 00 00 00 00
  vcan0  109   [8]  83 00 40 FF 00 00 00 00
  vcan0  106   [8]  77 00 00 00 00 00 00 00
  vcan0  100   [8]  C8 01 00 00 00 00 00 00
  vcan0  108   [8]  E0 FF EA FF E7 03 00 00
  vcan0  101   [8]  EC 0D 00 00 00 00 00 00
  vcan0  109   [8]  7B 00 3F FF 00 00 00 00
  vcan0  101   [8]  EE 0D 00 00 00 00 00 00
  vcan0  108   [8]  DF FF EA FF E7 03 00 00
  vcan0  109   [8]  74 00 3E FF 00 00 00 00
  vcan0  106   [8]  78 00 00 00 00 00 00 00
  vcan0  100   [8]  C8 01 00 00 00 00 00 00
  vcan0  101   [8]  F1 0D 00 00 00 00 00 00
  vcan0  108   [8]  DE FF EB FF E7 03 00 00
  vcan0  109   [8]  6C 00 3D FF 00 00 00 00
  vcan0  108   [8]  DD FF EB FF E7 03 00 00
  vcan0  109   [8]  64 00 3D FF 00 00 00 00
  vcan0  101   [8]  F4 0D 00 00 00 00 00 00
  vcan0  106   [8]  79 00 00 00 00 00 00 00
  vcan0  100   [8]  C9 01 00 00 00 00 00 00
  vcan0  108   [8]  DD FF EC FF E7 03 00 00
  vcan0  109   [8]  5C 00 3C FF 00 00 00 00
  vcan0  101   [8]  F7 0D 00 00 00 00 00 00
  vcan0  101   [8]  FA 0D 00 00 00 00 00 00
  vcan0  109   [8]  54 00 3B FF 00 00 00 00
  vcan0  108   [8]  DC FF EC FF E7 03 00 00
  vcan0  106   [8]  7B 00 00 00 00 00 00 00
  vcan0  100   [8]  CA 01 00 00 00 00 00 00
  vcan0  109   [8]  4C 00 3B FF 00 00 00 00
  vcan0  101   [8]  FD 0D 00 00 00 00 00 00
  vcan0  108   [8]  DB FF ED FF E7 03 00 00
  vcan0  101   [8]  00 0E 00 00 00 00 00 00
  vcan0  108   [8]  DB FF ED FF E7 03 00 00
  vcan0  109   [8]  45 00 3A FF 00 00 00 00
  vcan0  106   [8]  7C 00 00 00 00 00 00 00
  vcan0  100   [8]  CA 01 00 00 00 00 00 00
  vcan0  104   [8]  44 01 1C 01 30 01 00 00
  vcan0  108   [8]  DA FF ED FF E7 03 00 00
  vcan0  105   [8]  BF 03 00 00 00 00 00 00
  vcan0  107   [8]  FD 01 00 00 00 00 00 00
  vcan0  101   [8]  03 0E 00 00 00 00 00 00
  vcan0  102   [8]  C8 01 00 00 00 00 00 00
  vcan0  103   [8]  93 01 CF 01 00 00 00 00
  vcan0  109   [8]  3C 00 3A FF 00 00 00 00
  vcan0  108   [8]  D9 FF EE FF E7 03 00 00
  vcan0  101   [8]  06 0E 00 00 00 00 00 00
  vcan0  109   [8]  34 00 3A FF 00 00 00 00
  vcan0  100   [8]  CB 01 00 00 00 00 00 00
  vcan0  106   [8]  7D 00 00 00 00 00 00 00
  vcan0  108   [8]  D9 FF EE FF E7 03 00 00
  vcan0  101   [8]  09 0E 00 00 00 00 00 00
  vcan0  109   [8]  2C 00 39 FF 00 00 00 00
  vcan0  101   [8]  0C 0E 00 00 00 00 00 00
  vcan0  108   [8]  D8 FF EF FF E7 03 00 00
  vcan0  109   [8]  24 00 39 FF 00 00 00 00
  vcan0  100   [8]  CB 01 00 00 00 00 00 00
  vcan0  106   [8]  7E 00 00 00 00 00 00 00
  vcan0  101   [8]  0F 0E 00 00 00 00 00 00
  vcan0  108   [8]  D7 FF F0 FF E7 03 00 00
  vcan0  109   [8]  1D 00 39 FF 00 00 00 00
  vcan0  108   [8]  D7 FF F0 FF E7 03 00 00
  vcan0  101   [8]  12 0E 00 00 00 00 00 00
  vcan0  109   [8]  15 00 39 FF 00 00 00 00
  vcan0  100   [8]  CC 01 00 00 00 00 00 00
  vcan0  106   [8]  7F 00 00 00 00 00 00 00
  vcan0  101   [8]  15 0E 00 00 00 00 00 00
  vcan0  109   [8]  0D 00 39 FF 00 00 00 00
  vcan0  108   [8]  D6 FF F1 FF E7 03 00 00
  vcan0  109   [8]  05 00 39 FF 00 00 00 00
  vcan0  101   [8]  18 0E 00 00 00 00 00 00
  vcan0  108   [8]  D6 FF F1 FF E7 03 00 00
  vcan0  100   [8]  CC 01 00 00 00 00 00 00
  vcan0  106   [8]  80 00 00 00 00 00 00 00
  vcan0  109   [8]  FE FF 39 FF 00 00 00 00
  vcan0  108   [8]  D5 FF F2 FF E7 03 00 00
  vcan0  101   [8]  1B 0E 00 00 00 00 00 00
  vcan0  109   [8]  F6 FF 39 FF 00 00 00 00
  vcan0  108   [8]  D5 FF F2 FF E7 03 00 00
  vcan0  101   [8]  1D 0E 00 00 00 00 00 00
  vcan0  100   [8]  CD 01 00 00 00 00 00 00
  vcan0  106   [8]  81 00 00 00 00 00 00 00
  vcan0  104   [8]  44 01 1C 01 30 01 00 00
  vcan0  105   [8]  BF 03 00 00 00 00 00 00
  vcan0  102   [8]  C9 01 00 00 00 00 00 00
  vcan0  103   [8]  93 01 CF 01 00 00 00 00
  vcan0  107   [8]  FE 01 00 00 00 00 00 00
  vcan0  109   [8]  EE FF 39 FF 00 00 00 00
  vcan0  108   [8]  D4 FF F3 FF E7 03 00 00
  vcan0  101   [8]  20 0E 00 00 00 00 00 00
  vcan0  109   [8]  E7 FF 39 FF 00 00 00 00
  vcan0  108   [8]  D4 FF F3 FF E7 03 00 00
  vcan0  101   [8]  23 0E 00 00 00 00 00 00
  vcan0  100   [8]  CE 01 00 00 00 00 00 00
  vcan0  106   [8]  82 00 00 00 00 00 00 00
  vcan0  109   [8]  DF FF 39 FF 00 00 00 00
  vcan0  108   [8]  D3 FF F4 FF E7 03 00 00
  vcan0  101   [8]  26 0E 00 00 00 00 00 00
  vcan0  109   [8]  D7 FF 39 FF 00 00 00 00
  vcan0  108   [8]  D3 FF F4 FF E7 03 00 00
  vcan0  101   [8]  29 0E 00 00 00 00 00 00
  vcan0  106   [8]  83 00 00 00 00 00 00 00
  vcan0  100   [8]  CE 01 00 00 00 00 00 00
  vcan0  108   [8]  D2 FF F5 FF E7 03 00 00
  vcan0  109   [8]  CF FF 39 FF 00 00 00 00
  vcan0  101   [8]  2C 0E 00 00 00 00 00 00
  vcan0  108   [8]  D2 FF F6 FF E7 03 00 00
  vcan0  109   [8]  C7 FF 3A FF 00 00 00 00
  vcan0  101   [8]  2F 0E 00 00 00 00 00 00
  vcan0  100   [8]  CF 01 00 00 00 00 00 00
  vcan0  106   [8]  84 00 00 00 00 00 00 00
  vcan0  109   [8]  BF FF 3A FF 00 00 00 00
  vcan0  101   [8]  31 0E 00 00 00 00 00 00
  vcan0  108   [8]  D2 FF F6 FF E7 03 00 00
  vcan0  100   [8]  CF 01 00 00 00 00 00 00
  vcan0  108   [8]  D1 FF F7 FF E7 03 00 00
  vcan0  106   [8]  85 00 00 00 00 00 00 00
  vcan0  109   [8]  B6 FF 3B FF 00 00 00 00
  vcan0  101   [8]  35 0E 00 00 00 00 00 00
  vcan0  108   [8]  D1 FF F7 FF E7 03 00 00
  vcan0  109   [8]  AF FF 3B FF 00 00 00 00
  vcan0  101   [8]  37 0E 00 00 00 00 00 00
  vcan0  104   [8]  44 01 1C 01 30 01 00 00
  vcan0  105   [8]  BF 03 00 00 00 00 00 00
  vcan0  108   [8]  D1 FF F8 FF E7 03 00 00
  vcan0  106   [8]  86 00 00 00 00 00 00 00
  vcan0  107   [8]  FE 01 00 00 00 00 00 00
  vcan0  101   [8]  3A 0E 00 00 00 00 00 00
  vcan0  103   [8]  93 01 CF 01 00 00 00 00
  vcan0  109   [8]  A7 FF 3C FF 00 00 00 00
  vcan0  102   [8]  C9 01 00 00 00 00 00 00
  vcan0  100   [8]  D0 01 00 00 00 00 00 00
  vcan0  108   [8]  D0 FF F9 FF E7 03 00 00
  vcan0  101   [8]  3D 0E 00 00 00 00 00 00
  vcan0  109   [8]  9F FF 3C FF 00 00 00 00
  vcan0  108   [8]  D0 FF F9 FF E7 03 00 00
  vcan0  106   [8]  87 00 00 00 00 00 00 00
  vcan0  100   [8]  D0 01 00 00 00 00 00 00
  vcan0  101   [8]  40 0E 00 00 00 00 00 00
  vcan0  109   [8]  97 FF 3D FF 00 00 00 00
  vcan0  108   [8]  D0 FF FA FF E7 03 00 00
  vcan0  101   [8]  43 0E 00 00 00 00 00 00
  vcan0  109   [8]  90 FF 3E FF 00 00 00 00
  vcan0  108   [8]  D0 FF FB FF E7 03 00 00
  vcan0  106   [8]  88 00 00 00 00 00 00 00
  vcan0  101   [8]  46 0E 00 00 00 00 00 00
  vcan0  109   [8]  88 FF 3E FF 00 00 00 00
  vcan0  100   [8]  D1 01 00 00 00 00 00 00
  vcan0  108   [8]  CF FF FB FF E7 03 00 00
  vcan0  109   [8]  81 FF 3F FF 00 00 00 00
  vcan0  101   [8]  49 0E 00 00 00 00 00 00
  vcan0  106   [8]  89 00 00 00 00 00 00 00
  vcan0  100   [8]  D1 01 00 00 00 00 00 00
  vcan0  108   [8]  CF FF FC FF E7 03 00 00
  vcan0  109   [8]  79 FF 40 FF 00 00 00 00
  vcan0  101   [8]  4B 0E 00 00 00 00 00 00
  vcan0  108   [8]  CF FF FC FF E7 03 00 00
  vcan0  109   [8]  71 FF 41 FF 00 00 00 00
  vcan0  101   [8]  4E 0E 00 00 00 00 00 00
  vcan0  106   [8]  8A 00 00 00 00 00 00 00
  vcan0  100   [8]  D2 01 00 00 00 00 00 00
  vcan0  108   [8]  CF FF FD FF E7 03 00 00
  vcan0  109   [8]  6A FF 42 FF 00 00 00 00
  vcan0  101   [8]  51 0E 00 00 00 00 00 00
  vcan0  108   [8]  CF FF FE FF E7 03 00 00
  vcan0  101   [8]  54 0E 00 00 00 00 00 00
  vcan0  109   [8]  63 FF 43 FF 00 00 00 00
  vcan0  104   [8]  44 01 1C 01 30 01 00 00
  vcan0  105   [8]  BF 03 00 00 00 00 00 00
  vcan0  102   [8]  C9 01 00 00 00 00 00 00
  vcan0  107   [8]  FF 01 00 00 00 00 00 00
  vcan0  103   [8]  93 01 CF 01 00 00 00 00
  vcan0  106   [8]  8B 00 00 00 00 00 00 00
  vcan0  100   [8]  D3 01 00 00 00 00 00 00
  vcan0  108   [8]  CF FF FE FF E7 03 00 00
  vcan0  101   [8]  56 0E 00 00 00 00 00 00
  vcan0  109   [8]  5B FF 44 FF 00 00 00 00
  vcan0  108   [8]  CF FF FF FF E7 03 00 00
  vcan0  101   [8]  59 0E 00 00 00 00 00 00
  vcan0  109   [8]  54 FF 45 FF 00 00 00 00
  vcan0  100   [8]  D3 01 00 00 00 00 00 00
  vcan0  106   [8]  8C 00 00 00 00 00 00 00
  vcan0  108   [8]  CF FF FF FF E7 03 00 00
  vcan0  101   [8]  5C 0E 00 00 00 00 00 00
  vcan0  109   [8]  4D FF 46 FF 00 00 00 00
  vcan0  108   [8]  CF FF 00 00 E7 03 00 00
  vcan0  101   [8]  5F 0E 00 00 00 00 00 00
  vcan0  109   [8]  45 FF 47 FF 00 00 00 00
  vcan0  100   [8]  D4 01 00 00 00 00 00 00
  vcan0  106   [8]  8D 00 00 00 00 00 00 00
  vcan0  108   [8]  CF FF 00 00 E7 03 00 00
  vcan0  101   [8]  62 0E 00 00 00 00 00 00
  vcan0  109   [8]  3E FF 48 FF 00 00 00 00
  vcan0  108   [8]  CF FF 00 00 E7 03 00 00
  vcan0  101   [8]  64 0E 00 00 00 00 00 00
  vcan0  109   [8]  37 FF 49 FF 00 00 00 00
  vcan0  106   [8]  8E 00 00 00 00 00 00 00
  vcan0  100   [8]  D4 01 00 00 00 00 00 00
  vcan0  108   [8]  CF FF 01 00 E7 03 00 00
  vcan0  101   [8]  67 0E 00 00 00 00 00 00
  vcan0  109   [8]  30 FF 4B FF 00 00 00 00
  vcan0  108   [8]  CF FF 02 00 E7 03 00 00
  vcan0  109   [8]  29 FF 4C FF 00 00 00 00
  vcan0  101   [8]  6A 0E 00 00 00 00 00 00
  vcan0  106   [8]  8F 00 00 00 00 00 00 00
  vcan0  100   [8]  D5 01 00 00 00 00 00 00
  vcan0  108   [8]  CF FF 02 00 E7 03 00 00
  vcan0  109   [8]  22 FF 4D FF 00 00 00 00
  vcan0  101   [8]  6D 0E 00 00 00 00 00 00
  vcan0  108   [8]  CF FF 03 00 E7 03 00 00
  vcan0  101   [8]  6F 0E 00 00 00 00 00 00
  vcan0  109   [8]  1B FF 4F FF 00 00 00 00
  vcan0  104   [8]  44 01 1C 01 30 01 00 00
  vcan0  105   [8]  BF 03 00 00 00 00 00 00
  vcan0  102   [8]  CA 01 00 00 00 00 00 00
  vcan0  107   [8]  FF 01 00 00 00 00 00 00
  vcan0  103   [8]  94 01 D0 01 00 00 00 00
  vcan0  106   [8]  90 00 00 00 00 00 00 00
  vcan0  100   [8]  D5 01 00 00 00 00 00 00
  vcan0  108   [8]  CF FF 03 00 E7 03 00 00
  vcan0  109   [8]  14 FF 50 FF 00 00 00 00
  vcan0  101   [8]  72 0E 00 00 00 00 00 00
  vcan0  108   [8]  CF FF 04 00 E7 03 00 00
  vcan0  101   [8]  75 0E 00 00 00 00 00 00
  vcan0  109   [8]  0D FF 52 FF 00 00 00 00
  vcan0  100   [8]  D6 01 00 00 00 00 00 00
  vcan0  106   [8]  91 00 00 00 00 00 00 00
  vcan0  108   [8]  CF FF 05 00 E7 03 00 00
  vcan0  101   [8]  78 0E 00 00 00 00 00 00
  vcan0  109   [8]  06 FF 53 FF 00 00 00 00
  vcan0  108   [8]  CF FF 05 00 E7 03 00 00
  vcan0  109   [8]  FF FE 55 FF 00 00 00 00
  vcan0  101   [8]  7B 0E 00 00 00 00 00 00
  vcan0  100   [8]  D6 01 00 00 00 00 00 00
  vcan0  106   [8]  92 00 00 00 00 00 00 00
  vcan0  108   [8]  D0 FF 06 00 E7 03 00 00
  vcan0  101   [8]  7E 0E 00 00 00 00 00 00
  vcan0  109   [8]  F8 FE 57 FF 00 00 00 00
  vcan0  108   [8]  D0 FF 07 00 E7 03 00 00
  vcan0  109   [8]  F1 FE 58 FF 00 00 00 00
  vcan0  101   [8]  81 0E 00 00 00 00 00 00
  vcan0  106   [8]  93 00 00 00 00 00 00 00
  vcan0  100   [8]  D7 01 00 00 00 00 00 00
  vcan0  108   [8]  D0 FF 07 00 E7 03 00 00
  vcan0  101   [8]  83 0E 00 00 00 00 00 00
  vcan0  109   [8]  EB FE 5A FF 00 00 00 00
  vcan0  101   [8]  86 0E 00 00 00 00 00 00
  vcan0  109   [8]  E4 FE 5C FF 00 00 00 00
  vcan0  108   [8]  D0 FF 08 00 E7 03 00 00
  vcan0  106   [8]  94 00 00 00 00 00 00 00
  vcan0  100   [8]  D7 01 00 00 00 00 00 00
  vcan0  109   [8]  DE FE 5E FF 00 00 00 00
  vcan0  108   [8]  D1 FF 08 00 E7 03 00 00
  vcan0  101   [8]  89 0E 00 00 00 00 00 00
  vcan0  105   [8]  BF 03 00 00 00 00 00 00
  vcan0  104   [8]  45 01 1D 01 31 01 00 00
  vcan0  102   [8]  CA 01 00 00 00 00 00 00
  vcan0  107   [8]  00 02 00 00 00 00 00 00
  vcan0  103   [8]  94 01 D0 01 00 00 00 00
  vcan0  108   [8]  D1 FF 09 00 E7 03 00 00
  vcan0  109   [8]  D7 FE 60 FF 00 00 00 00
  vcan0  101   [8]  8C 0E 00 00 00 00 00 00
  vcan0  106   [8]  95 00 00 00 00 00 00 00
  vcan0  100   [8]  D8 01 00 00 00 00 00 00
  vcan0  109   [8]  D1 FE 62 FF 00 00 00 00
  vcan0  108   [8]  D1 FF 0A 00 E7 03 00 00
  vcan0  101   [8]  8F 0E 00 00 00 00 00 00
  vcan0  108   [8]  D2 FF 0A 00 E7 03 00 00
  vcan0  101   [8]  91 0E 00 00 00 00 00 00
  vcan0  109   [8]  CA FE 64 FF 00 00 00 00
  vcan0  106   [8]  95 00 00 00 00 00 00 00
  vcan0  100   [8]  D9 01 00 00 00 00 00 00
  vcan0  108   [8]  D2 FF 0B 00 E7 03 00 00
  vcan0  101   [8]  94 0E 00 00 00 00 00 00
  vcan0  109   [8]  C4 FE 66 FF 00 00 00 00
  vcan0  101   [8]  97 0E 00 00 00 00 00 00
  vcan0  108   [8]  D3 FF 0B 00 E7 03 00 00
  vcan0  109   [8]  BE FE 68 FF 00 00 00 00
  vcan0  100   [8]  D9 01 00 00 00 00 00 00
  vcan0  106   [8]  96 00 00 00 00 00 00 00
  vcan0  109   [8]  B8 FE 6A FF 00 00 00 00
  vcan0  101   [8]  9A 0E 00 00 00 00 00 00
  vcan0  108   [8]  D3 FF 0C 00 E7 03 00 00
  vcan0  108   [8]  D4 FF 0D 00 E7 03 00 00
  vcan0  109   [8]  B2 FE 6C FF 00 00 00 00
  vcan0  101   [8]  9D 0E 00 00 00 00 00 00
  vcan0  100   [8]  DA 01 00 00 00 00 00 00
  vcan0  106   [8]  97 00 00 00 00 00 00 00
  vcan0  109   [8]  AC FE 6E FF 00 00 00 00
  vcan0  108   [8]  D4 FF 0D 00 E7 03 00 00
  vcan0  101   [8]  9F 0E 00 00 00 00 00 00
  vcan0  108   [8]  D5 FF 0E 00 E7 03 00 00
  vcan0  100   [8]  DA 01 00 00 00 00 00 00
  vcan0  101   [8]  A2 0E 00 00 00 00 00 00
  vcan0  106   [8]  98 00 00 00 00 00 00 00
  vcan0  109   [8]  A5 FE 71 FF 00 00 00 00
  vcan0  104   [8]  45 01 1D 01 31 01 00 00
  vcan0  101   [8]  A5 0E 00 00 00 00 00 00
  vcan0  109   [8]  A0 FE 73 FF 00 00 00 00
  vcan0  105   [8]  BF 03 00 00 00 00 00 00
  vcan0  103   [8]  94 01 D0 01 00 00 00 00
  vcan0  108   [8]  D5 FF 0E 00 E7 03 00 00
  vcan0  107   [8]  00 02 00 00 00 00 00 00
  vcan0  102   [8]  CA 01 00 00 00 00 00 00
  vcan0  100   [8]  DB 01 00 00 00 00 00 00
  vcan0  106   [8]  99 00 00 00 00 00 00 00
  vcan0  101   [8]  A8 0E 00 00 00 00 00 00
  vcan0  109   [8]  9A FE 75 FF 00 00 00 00
  vcan0  108   [8]  D6 FF 0F 00 E7 03 00 00
  vcan0  101   [8]  AA 0E 00 00 00 00 00 00
  vcan0  108   [8]  D6 FF 0F 00 E7 03 00 00
  vcan0  109   [8]  95 FE 77 FF 00 00 00 00
  vcan0  100   [8]  DB 01 00 00 00 00 00 00
  vcan0  106   [8]  9A 00 00 00 00 00 00 00
  vcan0  108   [8]  D7 FF 10 00 E7 03 00 00
  vcan0  101   [8]  AD 0E 00 00 00 00 00 00
  vcan0  109   [8]  8F FE 7A FF 00 00 00 00
  vcan0  108   [8]  D7 FF 11 00 E7 03 00 00
  vcan0  101   [8]  B0 0E 00 00 00 00 00 00
  vcan0  109   [8]  8A FE 7C FF 00 00 00 00
  vcan0  100   [8]  DC 01 00 00 00 00 00 00
  vcan0  106   [8]  9B 00 00 00 00 00 00 00
  vcan0  108   [8]  D8 FF 11 00 E7 03 00 00
  vcan0  101   [8]  B3 0E 00 00 00 00 00 00
  vcan0  109   [8]  85 FE 7E FF 00 00 00 00
  vcan0  108   [8]  D9 FF 12 00 E7 03 00 00
  vcan0  101   [8]  B6 0E 00 00 00 00 00 00
  vcan0  109   [8]  80 FE 81 FF 00 00 00 00
  vcan0  106   [8]  9C 00 00 00 00 00 00 00
  vcan0  100   [8]  DC 01 00 00 00 00 00 00
  vcan0  109   [8]  7B FE 83 FF 00 00 00 00
  vcan0  101   [8]  B8 0E 00 00 00 00 00 00
  vcan0  108   [8]  D9 FF 12 00 E7 03 00 00
  vcan0  109   [8]  76 FE 86 FF 00 00 00 00
  vcan0  101   [8]  BB 0E 00 00 00 00 00 00
  vcan0  108   [8]  DA FF 13 00 E7 03 00 00
  vcan0  106   [8]  9C 00 00 00 00 00 00 00
  vcan0  100   [8]  DD 01 00 00 00 00 00 00
  vcan0  109   [8]  71 FE 88 FF 00 00 00 00
  vcan0  101   [8]  BE 0E 00 00 00 00 00 00
  vcan0  108   [8]  DB FF 13 00 E7 03 00 00
  vcan0  104   [8]  45 01 1D 01 31 01 00 00
  vcan0  107   [8]  01 02 00 00 00 00 00 00
  vcan0  105   [8]  BF 03 00 00 00 00 00 00
  vcan0  103   [8]  94 01 D0 01 00 00 00 00
  vcan0  102   [8]  CB 01 00 00 00 00 00 00
  vcan0  109   [8]  6C FE 8B FF 00 00 00 00
  vcan0  101   [8]  C0 0E 00 00 00 00 00 00
  vcan0  108   [8]  DB FF 14 00 E7 03 00 00
  vcan0  106   [8]  9D 00 00 00 00 00 00 00
  vcan0  100   [8]  DD 01 00 00 00 00 00 00
  vcan0  108   [8]  DC FF 14 00 E7 03 00 00
  vcan0  109   [8]  67 FE 8E FF 00 00 00 00
  vcan0  101   [8]  C3 0E 00 00 00 00 00 00
  vcan0  109   [8]  63 FE 90 FF 00 00 00 00
  vcan0  108   [8]  DD FF 15 00 E7 03 00 00
  vcan0  101   [8]  C6 0E 00 00 00 00 00 00
  vcan0  106   [8]  9E 00 00 00 00 00 00 00
  vcan0  100   [8]  DE 01 00 00 00 00 00 00
  vcan0  109   [8]  5F FE 93 FF 00 00 00 00
  vcan0  108   [8]  DE FF 15 00 E7 03 00 00
  vcan0  101   [8]  C9 0E 00 00 00 00 00 00
  vcan0  109   [8]  5A FE 95 FF 00 00 00 00
  vcan0  101   [8]  CB 0E 00 00 00 00 00 00
  vcan0  108   [8]  DE FF 15 00 E7 03 00 00
  vcan0  106   [8]  9F 00 00 00 00 00 00 00
  vcan0  100   [8]  DE 01 00 00 00 00 00 00
  vcan0  109   [8]  56 FE 98 FF 00 00 00 00
  vcan0  101   [8]  CE 0E 00 00 00 00 00 00
  vcan0  108   [8]  DF FF 16 00 E7 03 00 00
  vcan0  108   [8]  E0 FF 16 00 E7 03 00 00
  vcan0  109   [8]  52 FE 9B FF 00 00 00 00
  vcan0  101   [8]  D1 0E 00 00 00 00 00 00
  vcan0  106   [8]  A0 00 00 00 00 00 00 00
  vcan0  100   [8]  DF 01 00 00 00 00 00 00
  vcan0  109   [8]  4E FE 9E FF 00 00 00 00
  vcan0  108   [8]  E1 FF 17 00 E7 03 00 00
  vcan0  101   [8]  D4 0E 00 00 00 00 00 00
  vcan0  108   [8]  E2 FF 17 00 E7 03 00 00
  vcan0  109   [8]  4A FE A1 FF 00 00 00 00
  vcan0  101   [8]  D6 0E 00 00 00 00 00 00
  vcan0  106   [8]  A1 00 00 00 00 00 00 00
  vcan0  100   [8]  DF 01 00 00 00 00 00 00
  vcan0  107   [8]  01 02 00 00 00 00 00 00
  vcan0  105   [8]  BF 03 00 00 00 00 00 00
  vcan0  104   [8]  45 01 1D 01 31 01 00 00
  vcan0  102   [8]  CB 01 00 00 00 00 00 00
  vcan0  103   [8]  94 01 D0 01 00 00 00 00
  vcan0  109   [8]  46 FE A3 FF 00 00 00 00
  vcan0  101   [8]  D9 0E 00 00 00 00 00 00
  vcan0  108   [8]  E2 FF 17 00 E7 03 00 00
  vcan0  106   [8]  A1 00 00 00 00 00 00 00
  vcan0  101   [8]  DC 0E 00 00 00 00 00 00
  vcan0  109   [8]  42 FE A6 FF 00 00 00 00
  vcan0  108   [8]  E3 FF 18 00 E7 03 00 00
  vcan0  100   [8]  E0 01 00 00 00 00 00 00
  vcan0  109   [8]  3F FE A9 FF 00 00 00 00
  vcan0  101   [8]  DE 0E 00 00 00 00 00 00
  vcan0  108   [8]  E4 FF 18 00 E7 03 00 00
  vcan0  106   [8]  A2 00 00 00 00 00 00 00
  vcan0  100   [8]  E0 01 00 00 00 00 00 00
  vcan0  101   [8]  E1 0E 00 00 00 00 00 00
  vcan0  108   [8]  E5 FF 19 00 E7 03 00 00
  vcan0  109   [8]  3B FE AC FF 00 00 00 00
  vcan0  101   [8]  E4 0E 00 00 00 00 00 00
  vcan0  109   [8]  38 FE AF FF 00 00 00 00
  vcan0  108   [8]  E6 FF 19 00 E7 03 00 00
  vcan0  100   [8]  E1 01 00 00 00 00 00 00
  vcan0  106   [8]  A3 00 00 00 00 00 00 00
  vcan0  101   [8]  E6 0E 00 00 00 00 00 00
  vcan0  109   [8]  35 FE B2 FF 00 00 00 00
  vcan0  108   [8]  E7 FF 19 00 E7 03 00 00
  vcan0  101   [8]  E9 0E 00 00 00 00 00 00
  vcan0  109   [8]  32 FE B5 FF 00 00 00 00
  vcan0  108   [8]  E8 FF 1A 00 E7 03 00 00
  vcan0  100   [8]  E1 01 00 00 00 00 00 00
  vcan0  106   [8]  A4 00 00 00 00 00 00 00
  vcan0  101   [8]  EC 0E 00 00 00 00 00 00
  vcan0  109   [8]  2F FE B7 FF 00 00 00 00
  vcan0  108   [8]  E9 FF 1A 00 E7 03 00 00
  vcan0  101   [8]  EE 0E 00 00 00 00 00 00
  vcan0  109   [8]  2C FE BA FF 00 00 00 00
  vcan0  108   [8]  EA FF 1A 00 E7 03 00 00
  vcan0  100   [8]  E2 01 00 00 00 00 00 00
  vcan0  106   [8]  A5 00 00 00 00 00 00 00
  vcan0  101   [8]  F1 0E 00 00 00 00 00 00
  vcan0  109   [8]  2A FE BD FF 00 00 00 00
  vcan0  108   [8]  EA FF 1A 00 E7 03 00 00
  vcan0  107   [8]  01 02 00 00 00 00 00 00
  vcan0  104   [8]  45 01 1D 01 31 01 00 00
  vcan0  103   [8]  94 01 D0 01 00 00 00 00
  vcan0  102   [8]  CB 01 00 00 00 00 00 00
  vcan0  105   [8]  BF 03 00 00 00 00 00 00
  vcan0  101   [8]  F3 0E 00 00 00 00 00 00
  vcan0  109   [8]  27 FE C0 FF 00 00 00 00
  vcan0  108   [8]  EB FF 1B 00 E7 03 00 00
  vcan0  106   [8]  A5 00 00 00 00 00 00 00
  vcan0  100   [8]  E3 01 00 00 00 00 00 00
  vcan0  101   [8]  F6 0E 00 00 00 00 00 00
  vcan0  108   [8]  EC FF 1B 00 E7 03 00 00
  vcan0  109   [8]  25 FE C3 FF 00 00 00 00
  vcan0  101   [8]  F8 0E 00 00 00 00 00 00
  vcan0  108   [8]  ED FF 1B 00 E7 03 00 00
  vcan0  109   [8]  22 FE C6 FF 00 00 00 00
  vcan0  106   [8]  A6 00 00 00 00 00 00 00
  vcan0  100   [8]  E3 01 00 00 00 00 00 00
  vcan0  101   [8]  FB 0E 00 00 00 00 00 00
  vcan0  108   [8]  EE FF 1B 00 E7 03 00 00
  vcan0  109   [8]  20 FE C9 FF 00 00 00 00
  vcan0  101   [8]  FE 0E 00 00 00 00 00 00
  vcan0  108   [8]  EF FF 1C 00 E7 03 00 00
  vcan0  109   [8]  1E FE CC FF 00 00 00 00
  vcan0  100   [8]  E4 01 00 00 00 00 00 00
  vcan0  106   [8]  A7 00 00 00 00 00 00 00
  vcan0  101   [8]  00 0F 00 00 00 00 00 00
  vcan0  108   [8]  F0 FF 1C 00 E7 03 00 00
  vcan0  109   [8]  1C FE CF FF 00 00 00 00
  vcan0  101   [8]  03 0F 00 00 00 00 00 00
  vcan0  108   [8]  F1 FF 1C 00 E7 03 00 00
  vcan0  109   [8]  1A FE D2 FF 00 00 00 00
  vcan0  100   [8]  E4 01 00 00 00 00 00 00
  vcan0  106   [8]  A8 00 00 00 00 00 00 00
  vcan0  101   [8]  05 0F 00 00 00 00 00 00
  vcan0  108   [8]  F2 FF 1C 00 E7 03 00 00
  vcan0  109   [8]  18 FE D6 FF 00 00 00 00
  vcan0  101   [8]  08 0F 00 00 00 00 00 00
  vcan0  108   [8]  F3 FF 1C 00 E7 03 00 00
  vcan0  109   [8]  17 FE D9 FF 00 00 00 00
  vcan0  100   [8]  E5 01 00 00 00 00 00 00
  vcan0  106   [8]  A8 00 00 00 00 00 00 00
  vcan0  101   [8]  0A 0F 00 00 00 00 00 00
  vcan0  108   [8]  F4 FF 1D 00 E7 03 00 00
  vcan0  109   [8]  15 FE DC FF 00 00 00 00
  vcan0  107   [8]  02 02 00 00 00 00 00 00
  vcan0  104   [8]  46 01 1E 01 32 01 00 00
  vcan0  103   [8]  95 01 D1 01 00 00 00 00
  vcan0  102   [8]  CC 01 00 00 00 00 00 00
  vcan0  105   [8]  BF 03 00 00 00 00 00 00
  vcan0  101   [8]  0D 0F 00 00 00 00 00 00
  vcan0  108   [8]  F5 FF 1D 00 E7 03 00 00
  vcan0  109   [8]  14 FE DF FF 00 00 00 00
  vcan0  100   [8]  E5 01 00 00 00 00 00 00
  vcan0  106   [8]  A9 00 00 00 00 00 00 00
  vcan0  101   [8]  10 0F 00 00 00 00 00 00
  vcan0  108   [8]  F6 FF 1D 00 E7 03 00 00
  vcan0  109   [8]  12 FE E2 FF 00 00 00 00
  vcan0  101   [8]  12 0F 00 00 00 00 00 00
  vcan0  109   [8]  11 FE E5 FF 00 00 00 00
  vcan0  108   [8]  F7 FF 1D 00 E7 03 00 00
  vcan0  106   [8]  AA 00 00 00 00 00 00 00
  vcan0  100   [8]  E6 01 00 00 00 00 00 00
  vcan0  101   [8]  15 0F 00 00 00 00 00 00
  vcan0  109   [8]  10 FE E8 FF 00 00 00 00
  vcan0  108   [8]  F8 FF 1D 00 E7 03 00 00
  vcan0  101   [8]  17 0F 00 00 00 00 00 00
  vcan0  109   [8]  0F FE EB FF 00 00 00 00
  vcan0  108   [8]  F9 FF 1D 00 E7 03 00 00
  vcan0  100   [8]  E6 01 00 00 00 00 00 00
  vcan0  106   [8]  AB 00 00 00 00 00 00 00
  vcan0  101   [8]  1A 0F 00 00 00 00 00 00
  vcan0  109   [8]  0F FE EE FF 00 00 00 00
  vcan0  108   [8]  FB FF 1D 00 E7 03 00 00
  vcan0  101   [8]  1C 0F 00 00 00 00 00 00
  vcan0  109   [8]  0E FE F2 FF 00 00 00 00
  vcan0  108   [8]  FC FF 1D 00 E7 03 00 00
  vcan0  100   [8]  E7 01 00 00 00 00 00 00
  vcan0  106   [8]  AB 00 00 00 00 00 00 00
  vcan0  101   [8]  1F 0F 00 00 00 00 00 00
  vcan0  109   [8]  0D FE F5 FF 00 00 00 00
  vcan0  108   [8]  FD FF 1D 00 E7 03 00 00
  vcan0  101   [8]  22 0F 00 00 00 00 00 00
  vcan0  108   [8]  FE FF 1D 00 E7 03 00 00
  vcan0  109   [8]  0D FE F8 FF 00 00 00 00
  vcan0  100   [8]  E7 01 00 00 00 00 00 00
  vcan0  106   [8]  AC 00 00 00 00 00 00 00
  vcan0  107   [8]  02 02 00 00 00 00 00 00
  vcan0  104   [8]  46 01 1E 01 32 01 00 00
  vcan0  103   [8]  95 01 D1 01 00 00 00 00
  vcan0  102   [8]  CC 01 00 00 00 00 00 00
  vcan0  105   [8]  BF 03 00 00 00 00 00 00
  vcan0  101   [8]  24 0F 00 00 00 00 00 00
  vcan0  108   [8]  FF FF 1D 00 E7 03 00 00
  vcan0  109   [8]  0D FE FB FF 00 00 00 00
  vcan0  101   [8]  27 0F 00 00 00 00 00 00
  vcan0  108   [8]  00 00 1D 00 E7 03 00 00
  vcan0  109   [8]  0D FE FE FF 00 00 00 00
  vcan0  100   [8]  E8 01 00 00 00 00 00 00
  vcan0  106   [8]  AD 00 00 00 00 00 00 00
  vcan0  101   [8]  29 0F 00 00 00 00 00 00
  vcan0  108   [8]  00 00 1D 00 E7 03 00 00
  vcan0  109   [8]  0D FE 00 00 00 00 00 00
  vcan0  101   [8]  2C 0F 00 00 00 00 00 00
  vcan0  108   [8]  01 00 1D 00 E7 03 00 00
  vcan0  109   [8]  0D FE 04 00 00 00 00 00
  vcan0  106   [8]  AD 00 00 00 00 00 00 00
  vcan0  100   [8]  E8 01 00 00 00 00 00 00
  vcan0  101   [8]  2E 0F 00 00 00 00 00 00
  vcan0  109   [8]  0D FE 07 00 00 00 00 00
  vcan0  108   [8]  02 00 1D 00 E7 03 00 00
  vcan0  101   [8]  31 0F 00 00 00 00 00 00
  vcan0  109   [8]  0D FE 0A 00 00 00 00 00
  vcan0  108   [8]  03 00 1D 00 E7 03 00 00
  vcan0  106   [8]  AE 00 00 00 00 00 00 00
  vcan0  100   [8]  E9 01 00 00 00 00 00 00
  vcan0  101   [8]  33 0F 00 00 00 00 00 00
  vcan0  109   [8]  0E FE 0D 00 00 00 00 00
  vcan0  108   [8]  04 00 1D 00 E7 03 00 00
  vcan0  101   [8]  36 0F 00 00 00 00 00 00
  vcan0  109   [8]  0E FE 10 00 00 00 00 00
  vcan0  108   [8]  05 00 1D 00 E7 03 00 00
  vcan0  106   [8]  AF 00 00 00 00 00 00 00
  vcan0  100   [8]  E9 01 00 00 00 00 00 00
  vcan0  101   [8]  38 0F 00 00 00 00 00 00
  vcan0  109   [8]  0F FE 14 00 00 00 00 00
  vcan0  108   [8]  06 00 1D 00 E7 03 00 00
  vcan0  101   [8]  3B 0F 00 00 00 00 00 00
  vcan0  107   [8]  03 02 00 00 00 00 00 00
  vcan0  104   [8]  46 01 1E 01 32 01 00 00
  vcan0  109   [8]  10 FE 17 00 00 00 00 00
  vcan0  108   [8]  07 00 1D 00 E7 03 00 00
  vcan0  103   [8]  95 01 D1 01 00 00 00 00
  vcan0  102   [8]  CC 01 00 00 00 00 00 00
  vcan0  105   [8]  BF 03 00 00 00 00 00 00
  vcan0  106   [8]  AF 00 00 00 00 00 00 00
  vcan0  100   [8]  EA 01 00 00 00 00 00 00
  vcan0  101   [8]  3D 0F 00 00 00 00 00 00
  vcan0  108   [8]  08 00 1D 00 E7 03 00 00
  vcan0  109   [8]  11 FE 1A 00 00 00 00 00
  vcan0  101   [8]  40 0F 00 00 00 00 00 00
  vcan0  108   [8]  09 00 1D 00 E7 03 00 00
  vcan0  109   [8]  12 FE 1D 00 00 00 00 00
  vcan0  106   [8]  B0 00 00 00 00 00 00 00
  vcan0  100   [8]  EA 01 00 00 00 00 00 00
  vcan0  101   [8]  42 0F 00 00 00 00 00 00
  vcan0  108   [8]  0A 00 1D 00 E7 03 00 00
  vcan0  109   [8]  13 FE 20 00 00 00 00 00
  vcan0  101   [8]  45 0F 00 00 00 00 00 00
  vcan0  108   [8]  0B 00 1D 00 E7 03 00 00
  vcan0  109   [8]  15 FE 23 00 00 00 00 00
  vcan0  106   [8]  B1 00 00 00 00 00 00 00
  vcan0  100   [8]  EB 01 00 00 00 00 00 00
  vcan0  101   [8]  47 0F 00 00 00 00 00 00
  vcan0  109   [8]  16 FE 26 00 00 00 00 00
  vcan0  108   [8]  0C 00 1C 00 E7 03 00 00
  vcan0  101   [8]  4A 0F 00 00 00 00 00 00
  vcan0  106   [8]  B1 00 00 00 00 00 00 00
  vcan0  100   [8]  EB 01 00 00 00 00 00 00
  vcan0  109   [8]  18 FE 2A 00 00 00 00 00
  vcan0  108   [8]  0D 00 1C 00 E7 03 00 00
  vcan0  101   [8]  4D 0F 00 00 00 00 00 00
  vcan0  108   [8]  0E 00 1C 00 E7 03 00 00
  vcan0  109   [8]  19 FE 2D 00 00 00 00 00
  vcan0  101   [8]  4F 0F 00 00 00 00 00 00
  vcan0  106   [8]  B2 00 00 00 00 00 00 00
  vcan0  100   [8]  EC 01 00 00 00 00 00 00
  vcan0  108   [8]  0F 00 1C 00 E7 03 00 00
  vcan0  109   [8]  1B FE 30 00 00 00 00 00
  vcan0  101   [8]  51 0F 00 00 00 00 00 00
  vcan0  109   [8]  1D FE 33 00 00 00 00 00
  vcan0  108   [8]  11 00 1C 00 E7 03 00 00
  vcan0  104   [8]  46 01 1E 01 32 01 00 00
  vcan0  101   [8]  54 0F 00 00 00 00 00 00
  vcan0  105   [8]  BF 03 00 00 00 00 00 00
  vcan0  103   [8]  95 01 D1 01 00 00 00 00
  vcan0  107   [8]  03 02 00 00 00 00 00 00
  vcan0  102   [8]  CD 01 00 00 00 00 00 00
  vcan0  106   [8]  B2 00 00 00 00 00 00 00
  vcan0  100   [8]  EC 01 00 00 00 00 00 00
  vcan0  109   [8]  1F FE 36 00 00 00 00 00
  vcan0  108   [8]  12 00 1B 00 E7 03 00 00
  vcan0  101   [8]  56 0F 00 00 00 00 00 00
  vcan0  109   [8]  22 FE 39 00 00 00 00 00
  vcan0  108   [8]  12 00 1B 00 E7 03 00 00
  vcan0  101   [8]  59 0F 00 00 00 00 00 00
  vcan0  106   [8]  B3 00 00 00 00 00 00 00
  vcan0  100   [8]  ED 01 00 00 00 00 00 00
  vcan0  108   [8]  13 00 1B 00 E7 03 00 00
  vcan0  109   [8]  24 FE 3C 00 00 00 00 00
  vcan0  101   [8]  5B 0F 00 00 00 00 00 00
  vcan0  108   [8]  14 00 1B 00 E7 03 00 00
  vcan0  109   [8]  26 FE 3F 00 00 00 00 00
  vcan0  101   [8]  5E 0F 00 00 00 00 00 00
  vcan0  106   [8]  B4 00 00 00 00 00 00 00
  vcan0  100   [8]  ED 01 00 00 00 00 00 00
  vcan0  108   [8]  15 00 1A 00 E7 03 00 00
  vcan0  109   [8]  29 FE 42 00 00 00 00 00
  vcan0  101   [8]  60 0F 00 00 00 00 00 00
  vcan0  109   [8]  2C FE 45 00 00 00 00 00
  vcan0  108   [8]  16 00 1A 00 E7 03 00 00
  vcan0  101   [8]  63 0F 00 00 00 00 00 00
  vcan0  106   [8]  B4 00 00 00 00 00 00 00
  vcan0  100   [8]  ED 01 00 00 00 00 00 00
  vcan0  108   [8]  17 00 1A 00 E7 03 00 00
  vcan0  109   [8]  2E FE 48 00 00 00 00 00
  vcan0  101   [8]  65 0F 00 00 00 00 00 00
  vcan0  108   [8]  18 00 1A 00 E7 03 00 00
  vcan0  109   [8]  31 FE 4B 00 00 00 00 00
  vcan0  101   [8]  68 0F 00 00 00 00 00 00
  vcan0  100   [8]  EE 01 00 00 00 00 00 00
  vcan0  106   [8]  B5 00 00 00 00 00 00 00
  vcan0  108   [8]  19 00 19 00 E7 03 00 00
  vcan0  109   [8]  35 FE 4E 00 00 00 00 00
  vcan0  101   [8]  6A 0F 00 00 00 00 00 00
  vcan0  108   [8]  1A 00 19 00 E7 03 00 00
  vcan0  109   [8]  38 FE 51 00 00 00 00 00
  vcan0  104   [8]  46 01 1E 01 32 01 00 00
  vcan0  105   [8]  BF 03 00 00 00 00 00 00
  vcan0  107   [8]  04 02 00 00 00 00 00 00
  vcan0  103   [8]  95 01 D1 01 00 00 00 00
  vcan0  102   [8]  CD 01 00 00 00 00 00 00
  vcan0  101   [8]  6C 0F 00 00 00 00 00 00
  vcan0  100   [8]  EE 01 00 00 00 00 00 00
  vcan0  106   [8]  B5 00 00 00 00 00 00 00
  vcan0  108   [8]  1B 00 19 00 E7 03 00 00
  vcan0  109   [8]  3B FE 54 00 00 00 00 00
  vcan0  101   [8]  6F 0F 00 00 00 00 00 00
  vcan0  109   [8]  3E FE 57 00 00 00 00 00
  vcan0  108   [8]  1C 00 18 00 E7 03 00 00
  vcan0  101   [8]  71 0F 00 00 00 00 00 00
  vcan0  100   [8]  EF 01 00 00 00 00 00 00
  vcan0  106   [8]  B6 00 00 00 00 00 00 00
  vcan0  109   [8]  42 FE 59 00 00 00 00 00
  vcan0  108   [8]  1D 00 18 00 E7 03 00 00
  vcan0  101   [8]  74 0F 00 00 00 00 00 00
  vcan0  109   [8]  46 FE 5C 00 00 00 00 00
  vcan0  108   [8]  1E 00 17 00 E7 03 00 00
  vcan0  100   [8]  EF 01 00 00 00 00 00 00
  vcan0  106   [8]  B7 00 00 00 00 00 00 00
  vcan0  101   [8]  76 0F 00 00 00 00 00 00
  vcan0  109   [8]  49 FE 5F 00 00 00 00 00
  vcan0  108   [8]  1E 00 17 00 E7 03 00 00
  vcan0  101   [8]  79 0F 00 00 00 00 00 00
  vcan0  109   [8]  4D FE 62 00 00 00 00 00
  vcan0  108   [8]  1F 00 17 00 E7 03 00 00
  vcan0  100   [8]  F0 01 00 00 00 00 00 00
  vcan0  106   [8]  B7 00 00 00 00 00 00 00
  vcan0  101   [8]  7B 0F 00 00 00 00 00 00
  vcan0  109   [8]  51 FE 65 00 00 00 00 00
  vcan0  108   [8]  20 00 16 00 E7 03 00 00
  vcan0  101   [8]  7D 0F 00 00 00 00 00 00
  vcan0  108   [8]  21 00 16 00 E7 03 00 00
  vcan0  109   [8]  56 FE 68 00 00 00 00 00
  vcan0  100   [8]  F0 01 00 00 00 00 00 00
  vcan0  106   [8]  B8 00 00 00 00 00 00 00
  vcan0  101   [8]  80 0F 00 00 00 00 00 00
  vcan0  108   [8]  22 00 15 00 E7 03 00 00
  vcan0  109   [8]  5A FE 6A 00 00 00 00 00
  vcan0  101   [8]  82 0F 00 00 00 00 00 00
  vcan0  105   [8]  BF 03 00 00 00 00 00 00
  vcan0  104   [8]  47 01 1F 01 33 01 00 00
  vcan0  107   [8]  04 02 00 00 00 00 00 00
  vcan0  103   [8]  95 01 D1 01 00 00 00 00
  vcan0  102   [8]  CD 01 00 00 00 00 00 00
  vcan0  100   [8]  F1 01 00 00 00 00 00 00
  vcan0  108   [8]  22 00 15 00 E7 03 00 00
  vcan0  109   [8]  5E FE 6D 00 00 00 00 00
  vcan0  106   [8]  B8 00 00 00 00 00 00 00
  vcan0  101   [8]  84 0F 00 00 00 00 00 00
  vcan0  109   [8]  62 FE 6F 00 00 00 00 00
  vcan0  108   [8]  23 00 15 00 E7 03 00 00
  vcan0  101   [8]  87 0F 00 00 00 00 00 00
  vcan0  100   [8]  F1 01 00 00 00 00 00 00
  vcan0  106   [8]  B9 00 00 00 00 00 00 00
  vcan0  109   [8]  67 FE 72 00 00 00 00 00
  vcan0  108   [8]  24 00 14 00 E7 03 00 00
  vcan0  101   [8]  89 0F 00 00 00 00 00 00
  vcan0  108   [8]  25 00 14 00 E7 03 00 00
  vcan0  109   [8]  6B FE 75 00 00 00 00 00
  vcan0  101   [8]  8B 0F 00 00 00 00 00 00
  vcan0  100   [8]  F2 01 00 00 00 00 00 00
  vcan0  106   [8]  B9 00 00 00 00 00 00 00
  vcan0  109   [8]  70 FE 77 00 00 00 00 00
  vcan0  108   [8]  25 00 13 00 E7 03 00 00
  vcan0  101   [8]  8E 0F 00 00 00 00 00 00
  vcan0  108   [8]  26 00 13 00 E7 03 00 00
  vcan0  101   [8]  90 0F 00 00 00 00 00 00
  vcan0  109   [8]  75 FE 7A 00 00 00 00 00
  vcan0  100   [8]  F2 01 00 00 00 00 00 00
  vcan0  106   [8]  BA 00 00 00 00 00 00 00
  vcan0  108   [8]  27 00 12 00 E7 03 00 00
  vcan0  101   [8]  92 0F 00 00 00 00 00 00
  vcan0  109   [8]  7A FE 7C 00 00 00 00 00
  vcan0  108   [8]  27 00 12 00 E7 03 00 00
  vcan0  109   [8]  7F FE 7F 00 00 00 00 00
  vcan0  101   [8]  95 0F 00 00 00 00 00 00
  vcan0  100   [8]  F3 01 00 00 00 00 00 00
  vcan0  106   [8]  BA 00 00 00 00 00 00 00
  vcan0  109   [8]  84 FE 81 00 00 00 00 00
  vcan0  108   [8]  28 00 11 00 E7 03 00 00
  vcan0  101   [8]  97 0F 00 00 00 00 00 00
  vcan0  105   [8]  BF 03 00 00 00 00 00 00
  vcan0  107   [8]  05 02 00 00 00 00 00 00
  vcan0  102   [8]  CE 01 00 00 00 00 00 00
  vcan0  104   [8]  47 01 1F 01 33 01 00 00
  vcan0  103   [8]  96 01 D2 01 00 00 00 00
  vcan0  108   [8]  29 00 11 00 E7 03 00 00
  vcan0  109   [8]  89 FE 84 00 00 00 00 00
  vcan0  101   [8]  9A 0F 00 00 00 00 00 00
  vcan0  100   [8]  F3 01 00 00 00 00 00 00
  vcan0  106   [8]  BB 00 00 00 00 00 00 00
  vcan0  109   [8]  8E FE 86 00 00 00 00 00
  vcan0  108   [8]  29 00 10 00 E7 03 00 00
  vcan0  101   [8]  9C 0F 00 00 00 00 00 00
  vcan0  109   [8]  94 FE 88 00 00 00 00 00
  vcan0  108   [8]  2A 00 10 00 E7 03 00 00
  vcan0  101   [8]  9E 0F 00 00 00 00 00 00
  vcan0  100   [8]  F4 01 00 00 00 00 00 00
  vcan0  106   [8]  BB 00 00 00 00 00 00 00
  vcan0  109   [8]  99 FE 8B 00 00 00 00 00
  vcan0  101   [8]  A1 0F 00 00 00 00 00 00
  vcan0  108   [8]  2A 00 0F 00 E7 03 00 00
  vcan0  109   [8]  9F FE 8D 00 00 00 00 00
  vcan0  101   [8]  A3 0F 00 00 00 00 00 00
  vcan0  108   [8]  2B 00 0F 00 E7 03 00 00
  vcan0  100   [8]  F4 01 00 00 00 00 00 00
  vcan0  106   [8]  BC 00 00 00 00 00 00 00
  vcan0  108   [8]  2B 00 0E 00 E7 03 00 00
  vcan0  109   [8]  A5 FE 8F 00 00 00 00 00
  vcan0  101   [8]  A6 0F 00 00 00 00 00 00
  vcan0  109   [8]  AA FE 91 00 00 00 00 00
  vcan0  108   [8]  2C 00 0D 00 E7 03 00 00
  vcan0  101   [8]  A8 0F 00 00 00 00 00 00
  vcan0  100   [8]  F4 01 00 00 00 00 00 00
  vcan0  106   [8]  BC 00 00 00 00 00 00 00
  vcan0  109   [8]  B0 FE 94 00 00 00 00 00
  vcan0  108   [8]  2C 00 0D 00 E7 03 00 00
  vcan0  101   [8]  AA 0F 00 00 00 00 00 00
  vcan0  108   [8]  2D 00 0C 00 E7 03 00 00
  vcan0  101   [8]  AD 0F 00 00 00 00 00 00
  vcan0  109   [8]  B7 FE 96 00 00 00 00 00
  vcan0  100   [8]  F5 01 00 00 00 00 00 00
  vcan0  106   [8]  BC 00 00 00 00 00 00 00
  vcan0  108   [8]  2D 00 0C 00 E7 03 00 00
  vcan0  109   [8]  BC FE 98 00 00 00 00 00
  vcan0  101   [8]  AF 0F 00 00 00 00 00 00
  vcan0  105   [8]  BF 03 00 00 00 00 00 00
  vcan0  107   [8]  05 02 00 00 00 00 00 00
  vcan0  102   [8]  CE 01 00 00 00 00 00 00
  vcan0  103   [8]  96 01 D2 01 00 00 00 00
  vcan0  104   [8]  47 01 1F 01 33 01 00 00
  vcan0  109   [8]  C3 FE 9A 00 00 00 00 00
  vcan0  101   [8]  B1 0F 00 00 00 00 00 00
  vcan0  108   [8]  2E 00 0B 00 E7 03 00 00
  vcan0  106   [8]  BD 00 00 00 00 00 00 00
  vcan0  100   [8]  F5 01 00 00 00 00 00 00
  vcan0  109   [8]  C9 FE 9C 00 00 00 00 00
  vcan0  101   [8]  B4 0F 00 00 00 00 00 00
  vcan0  108   [8]  2E 00 0A 00 E7 03 00 00
  vcan0  109   [8]  CF FE 9E 00 00 00 00 00
  vcan0  101   [8]  B6 0F 00 00 00 00 00 00
  vcan0  108   [8]  2E 00 0A 00 E7 03 00 00
  vcan0  100   [8]  F6 01 00 00 00 00 00 00
  vcan0  106   [8]  BD 00 00 00 00 00 00 00
  vcan0  101   [8]  B8 0F 00 00 00 00 00 00
  vcan0  108   [8]  2F 00 09 00 E7 03 00 00
  vcan0  109   [8]  D6 FE A0 00 00 00 00 00
  vcan0  101   [8]  BB 0F 00 00 00 00 00 00
  vcan0  109   [8]  DC FE A2 00 00 00 00 00
  vcan0  108   [8]  2F 00 09 00 E7 03 00 00
  vcan0  106   [8]  BE 00 00 00 00 00 00 00
  vcan0  100   [8]  F6 01 00 00 00 00 00 00
  vcan0  101   [8]  BD 0F 00 00 00 00 00 00
  vcan0  108   [8]  2F 00 08 00 E7 03 00 00
  vcan0  109   [8]  E3 FE A4 00 00 00 00 00
  vcan0  106   [8]  BE 00 00 00 00 00 00 00
  vcan0  100   [8]  F7 01 00 00 00 00 00 00
  vcan0  108   [8]  30 00 07 00 E7 03 00 00
  vcan0  101   [8]  C0 0F 00 00 00 00 00 00
  vcan0  109   [8]  E9 FE A5 00 00 00 00 00
  vcan0  108   [8]  30 00 07 00 E7 03 00 00
  vcan0  109   [8]  F0 FE A7 00 00 00 00 00
  vcan0  101   [8]  C2 0F 00 00 00 00 00 00
  vcan0  106   [8]  BF 00 00 00 00 00 00 00
  vcan0  100   [8]  F7 01 00 00 00 00 00 00
  vcan0  108   [8]  30 00 06 00 E7 03 00 00
  vcan0  109   [8]  F7 FE A9 00 00 00 00 00
  vcan0  101   [8]  C4 0F 00 00 00 00 00 00
  vcan0  107   [8]  06 02 00 00 00 00 00 00
  vcan0  105   [8]  BF 03 00 00 00 00 00 00
  vcan0  102   [8]  CE 01 00 00 00 00 00 00
  vcan0  103   [8]  96 01 D2 01 00 00 00 00
  vcan0  104   [8]  47 01 1F 01 33 01 00 00
  vcan0  108   [8]  30 00 06 00 E7 03 00 00
  vcan0  109   [8]  FD FE AA 00 00 00 00 00
  vcan0  101   [8]  C6 0F 00 00 00 00 00 00
  vcan0  106   [8]  BF 00 00 00 00 00 00 00
  vcan0  100   [8]  F8 01 00 00 00 00 00 00
  vcan0  108   [8]  31 00 05 00 E7 03 00 00
  vcan0  109   [8]  04 FF AC 00 00 00 00 00
  vcan0  101   [8]  C9 0F 00 00 00 00 00 00
  vcan0  108   [8]  31 00 04 00 E7 03 00 00
  vcan0  101   [8]  CB 0F 00 00 00 00 00 00
  vcan0  109   [8]  0A FF AE 00 00 00 00 00
  vcan0  100   [8]  F8 01 00 00 00 00 00 00
  vcan0  106   [8]  BF 00 00 00 00 00 00 00
  vcan0  108   [8]  31 00 04 00 E7 03 00 00
  vcan0  101   [8]  CD 0F 00 00 00 00 00 00
  vcan0  109   [8]  11 FF AF 00 00 00 00 00
  vcan0  108   [8]  31 00 03 00 E7 03 00 00
  vcan0  101   [8]  CF 0F 00 00 00 00 00 00
  vcan0  109   [8]  18 FF B1 00 00 00 00 00
  vcan0  106   [8]  C0 00 00 00 00 00 00 00
  vcan0  100   [8]  F8 01 00 00 00 00 00 00
  vcan0  108   [8]  31 00 03 00 E7 03 00 00
  vcan0  101   [8]  D1 0F 00 00 00 00 00 00
  vcan0  109   [8]  1F FF B2 00 00 00 00 00
  vcan0  108   [8]  31 00 02 00 E7 03 00 00
  vcan0  101   [8]  D4 0F 00 00 00 00 00 00
  vcan0  109   [8]  26 FF B3 00 00 00 00 00
  vcan0  106   [8]  C0 00 00 00 00 00 00 00
  vcan0  100   [8]  F9 01 00 00 00 00 00 00
  vcan0  108   [8]  31 00 01 00 E7 03 00 00
  vcan0  101   [8]  D6 0F 00 00 00 00 00 00
  vcan0  109   [8]  2D FF B5 00 00 00 00 00
  vcan0  108   [8]  31 00 01 00 E7 03 00 00
  vcan0  101   [8]  D8 0F 00 00 00 00 00 00
  vcan0  109   [8]  34 FF B6 00 00 00 00 00
  vcan0  100   [8]  F9 01 00 00 00 00 00 00
  vcan0  106   [8]  C1 00 00 00 00 00 00 00
  vcan0  108   [8]  31 00 00 00 E7 03 00 00
  vcan0  109   [8]  3B FF B7 00 00 00 00 00
  vcan0  101   [8]  DA 0F 00 00 00 00 00 00
  vcan0  107   [8]  06 02 00 00 00 00 00 00
  vcan0  102   [8]  CF 01 00 00 00 00 00 00
  vcan0  105   [8]  BF 03 00 00 00 00 00 00
  vcan0  104   [8]  47 01 1F 01 33 01 00 00
  vcan0  103   [8]  96 01 D2 01 00 00 00 00
  vcan0  108   [8]  31 00 00 00 E7 03 00 00
  vcan0  109   [8]  42 FF B8 00 00 00 00 00
  vcan0  101   [8]  DD 0F 00 00 00 00 00 00
  vcan0  106   [8]  C1 00 00 00 00 00 00 00
  vcan0  100   [8]  FA 01 00 00 00 00 00 00
  vcan0  108   [8]  31 00 00 00 E7 03 00 00
  vcan0  109   [8]  49 FF BA 00 00 00 00 00
  vcan0  101   [8]  DF 0F 00 00 00 00 00 00
  vcan0  108   [8]  31 00 FF FF E7 03 00 00
  vcan0  109   [8]  51 FF BB 00 00 00 00 00
  vcan0  101   [8]  E1 0F 00 00 00 00 00 00
  vcan0  106   [8]  C1 00 00 00 00 00 00 00
  vcan0  100   [8]  FA 01 00 00 00 00 00 00
  vcan0  108   [8]  31 00 FF FF E7 03 00 00
  vcan0  101   [8]  E3 0F 00 00 00 00 00 00
  vcan0  109   [8]  58 FF BC 00 00 00 00 00
  vcan0  108   [8]  31 00 FE FF E7 03 00 00
  vcan0  101   [8]  E5 0F 00 00 00 00 00 00
  vcan0  109   [8]  5F FF BD 00 00 00 00 00
  vcan0  106   [8]  C2 00 00 00 00 00 00 00
  vcan0  100   [8]  FB 01 00 00 00 00 00 00
  vcan0  108   [8]  31 00 FD FF E7 03 00 00
  vcan0  101   [8]  E7 0F 00 00 00 00 00 00
  vcan0  109   [8]  67 FF BE 00 00 00 00 00
  vcan0  108   [8]  31 00 FD FF E7 03 00 00
  vcan0  101   [8]  EA 0F 00 00 00 00 00 00
  vcan0  109   [8]  6E FF BF 00 00 00 00 00
  vcan0  100   [8]  FB 01 00 00 00 00 00 00
  vcan0  106   [8]  C2 00 00 00 00 00 00 00
  vcan0  108   [8]  31 00 FC FF E7 03 00 00
  vcan0  109   [8]  75 FF C0 00 00 00 00 00
  vcan0  101   [8]  EC 0F 00 00 00 00 00 00
  vcan0  108   [8]  31 00 FC FF E7 03 00 00
  vcan0  101   [8]  EE 0F 00 00 00 00 00 00
  vcan0  109   [8]  7D FF C0 00 00 00 00 00
  vcan0  100   [8]  FB 01 00 00 00 00 00 00
  vcan0  106   [8]  C2 00 00 00 00 00 00 00
  vcan0  108   [8]  31 00 FB FF E7 03 00 00
  vcan0  101   [8]  F0 0F 00 00 00 00 00 00
  vcan0  109   [8]  85 FF C1 00 00 00 00 00
  vcan0  107   [8]  07 02 00 00 00 00 00 00
  vcan0  102   [8]  CF 01 00 00 00 00 00 00
  vcan0  103   [8]  96 01 D2 01 00 00 00 00
  vcan0  104   [8]  48 01 20 01 34 01 00 00
  vcan0  105   [8]  BF 03 00 00 00 00 00 00
  vcan0  108   [8]  30 00 FA FF E7 03 00 00
  vcan0  101   [8]  F2 0F 00 00 00 00 00 00
  vcan0  109   [8]  8C FF C2 00 00 00 00 00
  vcan0  100   [8]  FC 01 00 00 00 00 00 00
  vcan0  106   [8]  C2 00 00 00 00 00 00 00
  vcan0  108   [8]  30 00 FA FF E7 03 00 00
  vcan0  101   [8]  F4 0F 00 00 00 00 00 00
  vcan0  109   [8]  94 FF C3 00 00 00 00 00
  vcan0  108   [8]  30 00 F9 FF E7 03 00 00
  vcan0  101   [8]  F6 0F 00 00 00 00 00 00
  vcan0  109   [8]  9B FF C3 00 00 00 00 00
  vcan0  100   [8]  FC 01 00 00 00 00 00 00
  vcan0  106   [8]  C3 00 00 00 00 00 00 00
  vcan0  108   [8]  30 00 F9 FF E7 03 00 00
  vcan0  101   [8]  F9 0F 00 00 00 00 00 00
  vcan0  109   [8]  A3 FF C4 00 00 00 00 00
  vcan0  108   [8]  2F 00 F8 FF E7 03 00 00
  vcan0  101   [8]  FB 0F 00 00 00 00 00 00
  vcan0  109   [8]  AB FF C5 00 00 00 00 00
  vcan0  100   [8]  FD 01 00 00 00 00 00 00
  vcan0  106   [8]  C3 00 00 00 00 00 00 00
  vcan0  108   [8]  2F 00 F7 FF E7 03 00 00
  vcan0  101   [8]  FD 0F 00 00 00 00 00 00
  vcan0  109   [8]  B2 FF C5 00 00 00 00 00
  vcan0  108   [8]  2F 00 F7 FF E7 03 00 00
  vcan0  109   [8]  BA FF C5 00 00 00 00 00
  vcan0  101   [8]  FF 0F 00 00 00 00 00 00
  vcan0  100   [8]  FD 01 00 00 00 00 00 00
  vcan0  106   [8]  C3 00 00 00 00 00 00 00
  vcan0  108   [8]  2E 00 F6 FF E7 03 00 00
  vcan0  109   [8]  C2 FF C6 00 00 00 00 00
  vcan0  101   [8]  01 10 00 00 00 00 00 00
  vcan0  108   [8]  2E 00 F6 FF E7 03 00 00
  vcan0  109   [8]  C9 FF C6 00 00 00 00 00
  vcan0  101   [8]  03 10 00 00 00 00 00 00
  vcan0  106   [8]  C4 00 00 00 00 00 00 00
  vcan0  100   [8]  FE 01 00 00 00 00 00 00
  vcan0  108   [8]  2E 00 F5 FF E7 03 00 00
  vcan0  107   [8]  07 02 00 00 00 00 00 00
  vcan0  102   [8]  CF 01 00 00 00 00 00 00
  vcan0  103   [8]  96 01 D2 01 00 00 00 00
  vcan0  104   [8]  48 01 20 01 34 01 00 00
  vcan0  105   [8]  BF 03 00 00 00 00 00 00
  vcan0  101   [8]  05 10 00 00 00 00 00 00
  vcan0  109   [8]  D1 FF C7 00 00 00 00 00
  vcan0  108   [8]  2D 00 F4 FF E7 03 00 00
  vcan0  101   [8]  07 10 00 00 00 00 00 00
  vcan0  109   [8]  D9 FF C7 00 00 00 00 00
  vcan0  106   [8]  C4 00 00 00 00 00 00 00
  vcan0  100   [8]  FE 01 00 00 00 00 00 00
  vcan0  108   [8]  2D 00 F4 FF E7 03 00 00
  vcan0  101   [8]  0A 10 00 00 00 00 00 00
  vcan0  109   [8]  E0 FF C7 00 00 00 00 00
  vcan0  108   [8]  2C 00 F3 FF E7 03 00 00
  vcan0  101   [8]  0C 10 00 00 00 00 00 00
  vcan0  109   [8]  E8 FF C7 00 00 00 00 00
  vcan0  106   [8]  C4 00 00 00 00 00 00 00
  vcan0  100   [8]  FE 01 00 00 00 00 00 00
  vcan0  108   [8]  2C 00 F3 FF E7 03 00 00
  vcan0  101   [8]  0E 10 00 00 00 00 00 00
  vcan0  109   [8]  F0 FF C7 00 00 00 00 00
  vcan0  108   [8]  2C 00 F2 FF E7 03 00 00
  vcan0  101   [8]  10 10 00 00 00 00 00 00
  vcan0  109   [8]  F8 FF C7 00 00 00 00 00
  vcan0  106   [8]  C4 00 00 00 00 00 00 00
  vcan0  100   [8]  FF 01 00 00 00 00 00 00
  vcan0  108   [8]  2B 00 F2 FF E7 03 00 00
  vcan0  109   [8]  FF FF C7 00 00 00 00 00
  vcan0  101   [8]  12 10 00 00 00 00 00 00
  vcan0  108   [8]  2A 00 F1 FF E7 03 00 00
  vcan0  109   [8]  06 00 C7 00 00 00 00 00
  vcan0  101   [8]  14 10 00 00 00 00 00 00
  vcan0  106   [8]  C5 00 00 00 00 00 00 00
  vcan0  100   [8]  FF 01 00 00 00 00 00 00
  vcan0  108   [8]  2A 00 F1 FF E7 03 00 00
  vcan0  101   [8]  16 10 00 00 00 00 00 00
  vcan0  109   [8]  0F 00 C7 00 00 00 00 00
  vcan0  108   [8]  29 00 F0 FF E7 03 00 00
  vcan0  101   [8]  18 10 00 00 00 00 00 00
  vcan0  109   [8]  16 00 C7 00 00 00 00 00
  vcan0  100   [8]  00 02 00 00 00 00 00 00
  vcan0  106   [8]  C5 00 00 00 00 00 00 00
  vcan0  107   [8]  08 02 00 00 00 00 00 00
  vcan0  102   [8]  D0 01 00 00 00 00 00 00
  vcan0  104   [8]  48 01 20 01 34 01 00 00
  vcan0  103   [8]  97 01 D3 01 00 00 00 00
  vcan0  105   [8]  BF 03 00 00 00 00 00 00
  vcan0  108   [8]  29 00 F0 FF E7 03 00 00
  vcan0  101   [8]  1A 10 00 00 00 00 00 00
  vcan0  109   [8]  1E 00 C7 00 00 00 00 00
  vcan0  108   [8]  28 00 EF FF E7 03 00 00
  vcan0  109   [8]  26 00 C7 00 00 00 00 00
  vcan0  101   [8]  1C 10 00 00 00 00 00 00
  vcan0  106   [8]  C5 00 00 00 00 00 00 00
  vcan0  100   [8]  00 02 00 00 00 00 00 00
  vcan0  108   [8]  28 00 EF FF E7 03 00 00
  vcan0  101   [8]  1F 10 00 00 00 00 00 00
  vcan0  109   [8]  2E 00 C7 00 00 00 00 00
  vcan0  108   [8]  27 00 EE FF E7 03 00 00
  vcan0  109   [8]  36 00 C6 00 00 00 00 00
  vcan0  101   [8]  21 10 00 00 00 00 00 00
  vcan0  100   [8]  00 02 00 00 00 00 00 00
  vcan0  106   [8]  C5 00 00 00 00 00 00 00
  vcan0  108   [8]  26 00 EE FF E7 03 00 00
  vcan0  109   [8]  3E 00 C6 00 00 00 00 00
  vcan0  101   [8]  23 10 00 00 00 00 00 00
  vcan0  108   [8]  26 00 ED FF E7 03 00 00
  vcan0  109   [8]  46 00 C6 00 00 00 00 00
  vcan0  101   [8]  25 10 00 00 00 00 00 00
  vcan0  100   [8]  01 02 00 00 00 00 00 00
  vcan0  106   [8]  C5 00 00 00 00 00 00 00
  vcan0  108   [8]  25 00 ED FF E7 03 00 00
  vcan0  109   [8]  4D 00 C5 00 00 00 00 00
  vcan0  101   [8]  27 10 00 00 00 00 00 00
  vcan0  108   [8]  24 00 EC FF E7 03 00 00
  vcan0  109   [8]  55 00 C5 00 00 00 00 00
  vcan0  101   [8]  29 10 00 00 00 00 00 00
  vcan0  100   [8]  01 02 00 00 00 00 00 00
  vcan0  106   [8]  C6 00 00 00 00 00 00 00
  vcan0  108   [8]  24 00 EC FF E7 03 00 00
  vcan0  101   [8]  2B 10 00 00 00 00 00 00
  vcan0  109   [8]  5D 00 C4 00 00 00 00 00
  vcan0  108   [8]  23 00 EB FF E7 03 00 00
  vcan0  107   [8]  08 02 00 00 00 00 00 00
  vcan0  101   [8]  2D 10 00 00 00 00 00 00
  vcan0  102   [8]  D0 01 00 00 00 00 00 00
  vcan0  106   [8]  C6 00 00 00 00 00 00 00
  vcan0  109   [8]  65 00 C3 00 00 00 00 00
  vcan0  104   [8]  48 01 20 01 34 01 00 00
  vcan0  105   [8]  BF 03 00 00 00 00 00 00
  vcan0  100   [8]  02 02 00 00 00 00 00 00
  vcan0  103   [8]  97 01 D3 01 00 00 00 00
  vcan0  108   [8]  22 00 EB FF E7 03 00 00
  vcan0  101   [8]  2F 10 00 00 00 00 00 00
  vcan0  109   [8]  6D 00 C3 00 00 00 00 00
  vcan0  108   [8]  21 00 EA FF E7 03 00 00
  vcan0  106   [8]  C6 00 00 00 00 00 00 00
  vcan0  101   [8]  31 10 00 00 00 00 00 00
  vcan0  100   [8]  02 02 00 00 00 00 00 00
  vcan0  109   [8]  75 00 C2 00 00 00 00 00
  vcan0  108   [8]  21 00 EA FF E7 03 00 00
  vcan0  101   [8]  33 10 00 00 00 00 00 00
  vcan0  109   [8]  7C 00 C1 00 00 00 00 00
  vcan0  108   [8]  20 00 EA FF E7 03 00 00
  vcan0  106   [8]  C6 00 00 00 00 00 00 00
  vcan0  101   [8]  35 10 00 00 00 00 00 00
  vcan0  100   [8]  02 02 00 00 00 00 00 00
  vcan0  109   [8]  83 00 C0 00 00 00 00 00
  vcan0  108   [8]  1F 00 E9 FF E7 03 00 00
  vcan0  101   [8]  37 10 00 00 00 00 00 00
  vcan0  109   [8]  8B 00 C0 00 00 00 00 00
  vcan0  108   [8]  1E 00 E9 FF E7 03 00 00
  vcan0  106   [8]  C6 00 00 00 00 00 00 00
  vcan0  100   [8]  03 02 00 00 00 00 00 00
  vcan0  101   [8]  39 10 00 00 00 00 00 00
  vcan0  109   [8]  92 00 BF 00 00 00 00 00
  vcan0  108   [8]  1D 00 E8 FF E7 03 00 00
  vcan0  101   [8]  3B 10 00 00 00 00 00 00
  vcan0  109   [8]  9A 00 BE 00 00 00 00 00
  vcan0  108   [8]  1C 00 E8 FF E7 03 00 00
  vcan0  106   [8]  C6 00 00 00 00 00 00 00
  vcan0  100   [8]  03 02 00 00 00 00 00 00
  vcan0  101   [8]  3D 10 00 00 00 00 00 00
  vcan0  109   [8]  A1 00 BD 00 00 00 00 00
  vcan0  108   [8]  1C 00 E8 FF E7 03 00 00
  vcan0  101   [8]  3F 10 00 00 00 00 00 00
  vcan0  109   [8]  A8 00 BC 00 00 00 00 00
  vcan0  108   [8]  1B 00 E7 FF E7 03 00 00
  vcan0  105   [8]  BF 03 00 00 00 00 00 00
  vcan0  103   [8]  97 01 D3 01 00 00 00 00
  vcan0  106   [8]  C7 00 00 00 00 00 00 00
  vcan0  107   [8]  09 02 00 00 00 00 00 00
  vcan0  104   [8]  48 01 20 01 34 01 00 00
  vcan0  100   [8]  04 02 00 00 00 00 00 00
  vcan0  102   [8]  D0 01 00 00 00 00 00 00
  vcan0  101   [8]  41 10 00 00 00 00 00 00
  vcan0  109   [8]  AF 00 BB 00 00 00 00 00
  vcan0  108   [8]  1A 00 E7 FF E7 03 00 00
  vcan0  101   [8]  43 10 00 00 00 00 00 00
  vcan0  109   [8]  B7 00 BA 00 00 00 00 00
  vcan0  108   [8]  19 00 E7 FF E7 03 00 00
  vcan0  106   [8]  C7 00 00 00 00 00 00 00
  vcan0  100   [8]  04 02 00 00 00 00 00 00
  vcan0  101   [8]  45 10 00 00 00 00 00 00
  vcan0  109   [8]  BE 00 B8 00 00 00 00 00
  vcan0  108   [8]  18 00 E6 FF E7 03 00 00
  vcan0  101   [8]  47 10 00 00 00 00 00 00
  vcan0  109   [8]  C5 00 B7 00 00 00 00 00
  vcan0  108   [8]  17 00 E6 FF E7 03 00 00
  vcan0  100   [8]  04 02 00 00 00 00 00 00
  vcan0  106   [8]  C7 00 00 00 00 00 00 00
  vcan0  101   [8]  49 10 00 00 00 00 00 00
  vcan0  109   [8]  CC 00 B6 00 00 00 00 00
  vcan0  108   [8]  16 00 E6 FF E7 03 00 00
  vcan0  101   [8]  4B 10 00 00 00 00 00 00
  vcan0  109   [8]  D3 00 B5 00 00 00 00 00
  vcan0  108   [8]  15 00 E6 FF E7 03 00 00
  vcan0  100   [8]  05 02 00 00 00 00 00 00
  vcan0  106   [8]  C7 00 00 00 00 00 00 00
  vcan0  101   [8]  4D 10 00 00 00 00 00 00
  vcan0  109   [8]  DA 00 B3 00 00 00 00 00
  vcan0  108   [8]  14 00 E5 FF E7 03 00 00
  vcan0  101   [8]  4F 10 00 00 00 00 00 00
  vcan0  109   [8]  E1 00 B2 00 00 00 00 00
  vcan0  108   [8]  13 00 E5 FF E7 03 00 00
  vcan0  100   [8]  05 02 00 00 00 00 00 00
  vcan0  106   [8]  C7 00 00 00 00 00 00 00
  vcan0  101   [8]  51 10 00 00 00 00 00 00
  vcan0  109   [8]  E8 00 B1 00 00 00 00 00
  vcan0  108   [8]  12 00 E5 FF E7 03 00 00
  vcan0  101   [8]  52 10 00 00 00 00 00 00
  vcan0  109   [8]  EF 00 AF 00 00 00 00 00
  vcan0  105   [8]  BF 03 00 00 00 00 00 00
  vcan0  107   [8]  09 02 00 00 00 00 00 00
  vcan0  104   [8]  49 01 21 01 35 01 00 00
  vcan0  102   [8]  D1 01 00 00 00 00 00 00
  vcan0  103   [8]  97 01 D3 01 00 00 00 00
  vcan0  108   [8]  11 00 E4 FF E7 03 00 00
  vcan0  100   [8]  06 02 00 00 00 00 00 00
  vcan0  106   [8]  C7 00 00 00 00 00 00 00
  vcan0  101   [8]  54 10 00 00 00 00 00 00
  vcan0  109   [8]  F5 00 AE 00 00 00 00 00
  vcan0  108   [8]  10 00 E4 FF E7 03 00 00
  vcan0  101   [8]  56 10 00 00 00 00 00 00
  vcan0  109   [8]  FC 00 AC 00 00 00 00 00
  vcan0  108   [8]  0F 00 E4 FF E7 03 00 00
  vcan0  100   [8]  06 02 00 00 00 00 00 00
  vcan0  106   [8]  C7 00 00 00 00 00 00 00
  vcan0  109   [8]  03 01 AA 00 00 00 00 00
  vcan0  101   [8]  58 10 00 00 00 00 00 00
  vcan0  108   [8]  0E 00 E4 FF E7 03 00 00
  vcan0  109   [8]  0A 01 A9 00 00 00 00 00
  vcan0  101   [8]  5A 10 00 00 00 00 00 00
  vcan0  100   [8]  06 02 00 00 00 00 00 00
  vcan0  106   [8]  C7 00 00 00 00 00 00 00
  vcan0  108   [8]  0D 00 E4 FF E7 03 00 00
  vcan0  109   [8]  10 01 A7 00 00 00 00 00
  vcan0  101   [8]  5C 10 00 00 00 00 00 00
  vcan0  108   [8]  0C 00 E4 FF E7 03 00 00
  vcan0  109   [8]  17 01 A5 00 00 00 00 00
  vcan0  101   [8]  5E 10 00 00 00 00 00 00
  vcan0  106   [8]  C7 00 00 00 00 00 00 00
  vcan0  100   [8]  07 02 00 00 00 00 00 00
  vcan0  108   [8]  0B 00 E3 FF E7 03 00 00
  vcan0  109   [8]  1E 01 A4 00 00 00 00 00
  vcan0  101   [8]  60 10 00 00 00 00 00 00
  vcan0  108   [8]  0A 00 E3 FF E7 03 00 00
  vcan0  109   [8]  24 01 A2 00 00 00 00 00
  vcan0  101   [8]  62 10 00 00 00 00 00 00
  vcan0  106   [8]  C7 00 00 00 00 00 00 00
  vcan0  100   [8]  07 02 00 00 00 00 00 00
  vcan0  108   [8]  09 00 E3 FF E7 03 00 00
  vcan0  109   [8]  2B 01 A0 00 00 00 00 00
  vcan0  101   [8]  64 10 00 00 00 00 00 00
  vcan0  108   [8]  08 00 E3 FF E7 03 00 00
  vcan0  109   [8]  31 01 9E 00 00 00 00 00
  vcan0  101   [8]  66 10 00 00 00 00 00 00
  vcan0  107   [8]  0A 02 00 00 00 00 00 00
  vcan0  104   [8]  49 01 21 01 35 01 00 00
  vcan0  105   [8]  BF 03 00 00 00 00 00 00
  vcan0  102   [8]  D1 01 00 00 00 00 00 00
  vcan0  103   [8]  97 01 D3 01 00 00 00 00
  vcan0  100   [8]  07 02 00 00 00 00 00 00
  vcan0  106   [8]  C7 00 00 00 00 00 00 00
  vcan0  108   [8]  07 00 E3 FF E7 03 00 00
  vcan0  109   [8]  37 01 9C 00 00 00 00 00
  vcan0  101   [8]  68 10 00 00 00 00 00 00
  vcan0  108   [8]  06 00 E3 FF E7 03 00 00
  vcan0  109   [8]  3D 01 9A 00 00 00 00 00
  vcan0  101   [8]  6A 10 00 00 00 00 00 00
  vcan0  100   [8]  08 02 00 00 00 00 00 00
  vcan0  106   [8]  C7 00 00 00 00 00 00 00
  vcan0  108   [8]  05 00 E3 FF E7 03 00 00
  vcan0  109   [8]  43 01 98 00 00 00 00 00
  vcan0  101   [8]  6B 10 00 00 00 00 00 00
  vcan0  108   [8]  04 00 E3 FF E7 03 00 00
  vcan0  109   [8]  49 01 96 00 00 00 00 00
  vcan0  101   [8]  6D 10 00 00 00 00 00 00
  vcan0  100   [8]  08 02 00 00 00 00 00 00
  vcan0  106   [8]  C7 00 00 00 00 00 00 00
  vcan0  108   [8]  03 00 E3 FF E7 03 00 00
  vcan0  101   [8]  6F 10 00 00 00 00 00 00
  vcan0  109   [8]  4F 01 94 00 00 00 00 00
  vcan0  108   [8]  02 00 E3 FF E7 03 00 00
  vcan0  101   [8]  71 10 00 00 00 00 00 00
  vcan0  109   [8]  55 01 92 00 00 00 00 00
  vcan0  100   [8]  09 02 00 00 00 00 00 00
  vcan0  106   [8]  C7 00 00 00 00 00 00 00
  vcan0  108   [8]  01 00 E3 FF E7 03 00 00
  vcan0  101   [8]  73 10 00 00 00 00 00 00
  vcan0  109   [8]  5A 01 90 00 00 00 00 00
  vcan0  108   [8]  00 00 E3 FF E7 03 00 00
  vcan0  101   [8]  75 10 00 00 00 00 00 00
  vcan0  109   [8]  60 01 8D 00 00 00 00 00
  vcan0  106   [8]  C7 00 00 00 00 00 00 00
  vcan0  100   [8]  09 02 00 00 00 00 00 00
  vcan0  108   [8]  00 00 E3 FF E7 03 00 00
  vcan0  109   [8]  66 01 8B 00 00 00 00 00
  vcan0  101   [8]  77 10 00 00 00 00 00 00
  vcan0  108   [8]  FF FF E3 FF E7 03 00 00
  vcan0  104   [8]  49 01 21 01 35 01 00 00
  vcan0  102   [8]  D1 01 00 00 00 00 00 00
  vcan0  107   [8]  0A 02 00 00 00 00 00 00
  vcan0  105   [8]  BF 03 00 00 00 00 00 00
  vcan0  103   [8]  97 01 D3 01 00 00 00 00
  vcan0  109   [8]  6B 01 89 00 00 00 00 00
  vcan0  101   [8]  78 10 00 00 00 00 00 00
  vcan0  100   [8]  09 02 00 00 00 00 00 00
  vcan0  106   [8]  C7 00 00 00 00 00 00 00
  vcan0  108   [8]  FE FF E3 FF E7 03 00 00
  vcan0  109   [8]  70 01 87 00 00 00 00 00
  vcan0  101   [8]  7A 10 00 00 00 00 00 00
  vcan0  108   [8]  FD FF E3 FF E7 03 00 00
  vcan0  109   [8]  76 01 84 00 00 00 00 00
  vcan0  101   [8]  7C 10 00 00 00 00 00 00
  vcan0  100   [8]  0A 02 00 00 00 00 00 00
  vcan0  106   [8]  C7 00 00 00 00 00 00 00
  vcan0  108   [8]  FC FF E3 FF E7 03 00 00
  vcan0  109   [8]  7B 01 82 00 00 00 00 00
  vcan0  101   [8]  7E 10 00 00 00 00 00 00
  vcan0  108   [8]  FB FF E3 FF E7 03 00 00
  vcan0  109   [8]  80 01 7F 00 00 00 00 00
  vcan0  101   [8]  80 10 00 00 00 00 00 00
  vcan0  106   [8]  C7 00 00 00 00 00 00 00
  vcan0  100   [8]  0A 02 00 00 00 00 00 00
  vcan0  108   [8]  FA FF E3 FF E7 03 00 00
  vcan0  109   [8]  85 01 7D 00 00 00 00 00
  vcan0  101   [8]  82 10 00 00 00 00 00 00
  vcan0  108   [8]  F9 FF E3 FF E7 03 00 00
  vcan0  109   [8]  8A 01 7A 00 00 00 00 00
  vcan0  101   [8]  83 10 00 00 00 00 00 00
  vcan0  100   [8]  0A 02 00 00 00 00 00 00
  vcan0  106   [8]  C7 00 00 00 00 00 00 00
  vcan0  108   [8]  F8 FF E3 FF E7 03 00 00
  vcan0  109   [8]  8F 01 78 00 00 00 00 00
  vcan0  101   [8]  85 10 00 00 00 00 00 00
  vcan0  108   [8]  F7 FF E3 FF E7 03 00 00
  vcan0  109   [8]  93 01 75 00 00 00 00 00
  vcan0  101   [8]  87 10 00 00 00 00 00 00
  vcan0  106   [8]  C7 00 00 00 00 00 00 00
  vcan0  100   [8]  0B 02 00 00 00 00 00 00
  vcan0  108   [8]  F6 FF E3 FF E7 03 00 00
  vcan0  109   [8]  98 01 73 00 00 00 00 00
  vcan0  101   [8]  89 10 00 00 00 00 00 00
  vcan0  104   [8]  49 01 21 01 35 01 00 00
  vcan0  103   [8]  98 01 D4 01 00 00 00 00
  vcan0  105   [8]  BF 03 00 00 00 00 00 00
  vcan0  107   [8]  0B 02 00 00 00 00 00 00
  vcan0  102   [8]  D2 01 00 00 00 00 00 00
  vcan0  108   [8]  F5 FF E3 FF E7 03 00 00
  vcan0  109   [8]  9D 01 70 00 00 00 00 00
  vcan0  101   [8]  8B 10 00 00 00 00 00 00
  vcan0  106   [8]  C7 00 00 00 00 00 00 00
  vcan0  100   [8]  0B 02 00 00 00 00 00 00
  vcan0  108   [8]  F4 FF E3 FF E7 03 00 00
  vcan0  109   [8]  A1 01 6E 00 00 00 00 00
  vcan0  101   [8]  8C 10 00 00 00 00 00 00
  vcan0  108   [8]  F3 FF E4 FF E7 03 00 00
  vcan0  109   [8]  A5 01 6B 00 00 00 00 00
  vcan0  101   [8]  8E 10 00 00 00 00 00 00
  vcan0  106   [8]  C7 00 00 00 00 00 00 00
  vcan0  100   [8]  0B 02 00 00 00 00 00 00
  vcan0  108   [8]  F2 FF E4 FF E7 03 00 00
  vcan0  109   [8]  A9 01 68 00 00 00 00 00
  vcan0  101   [8]  90 10 00 00 00 00 00 00
  vcan0  108   [8]  F1 FF E4 FF E7 03 00 00
  vcan0  109   [8]  AE 01 65 00 00 00 00 00
  vcan0  106   [8]  C7 00 00 00 00 00 00 00
  vcan0  101   [8]  92 10 00 00 00 00 00 00
  vcan0  100   [8]  0C 02 00 00 00 00 00 00
  vcan0  108   [8]  F0 FF E4 FF E7 03 00 00
  vcan0  109   [8]  B2 01 63 00 00 00 00 00
  vcan0  101   [8]  94 10 00 00 00 00 00 00
  vcan0  108   [8]  EF FF E4 FF E7 03 00 00
  vcan0  100   [8]  0C 02 00 00 00 00 00 00
  vcan0  106   [8]  C7 00 00 00 00 00 00 00
  vcan0  101   [8]  95 10 00 00 00 00 00 00
  vcan0  109   [8]  B6 01 60 00 00 00 00 00
  vcan0  108   [8]  EE FF E5 FF E7 03 00 00
  vcan0  101   [8]  97 10 00 00 00 00 00 00
  vcan0  109   [8]  B9 01 5D 00 00 00 00 00
  vcan0  108   [8]  ED FF E5 FF E7 03 00 00
  vcan0  100   [8]  0C 02 00 00 00 00 00 00
  vcan0  106   [8]  C7 00 00 00 00 00 00 00
  vcan0  109   [8]  BD 01 5A 00 00 00 00 00
  vcan0  101   [8]  99 10 00 00 00 00 00 00
  vcan0  108   [8]  EC FF E5 FF E7 03 00 00
  vcan0  103   [8]  98 01 D4 01 00 00 00 00
  vcan0  104   [8]  49 01 21 01 35 01 00 00
  vcan0  107   [8]  0B 02 00 00 00 00 00 00
  vcan0  105   [8]  BF 03 00 00 00 00 00 00
  vcan0  102   [8]  D2 01 00 00 00 00 00 00
  vcan0  109   [8]  C1 01 57 00 00 00 00 00
  vcan0  101   [8]  9B 10 00 00 00 00 00 00
  vcan0  108   [8]  EB FF E5 FF E7 03 00 00
  vcan0  106   [8]  C7 00 00 00 00 00 00 00
  vcan0  100   [8]  0D 02 00 00 00 00 00 00
  vcan0  109   [8]  C4 01 55 00 00 00 00 00
  vcan0  101   [8]  9C 10 00 00 00 00 00 00
  vcan0  108   [8]  EA FF E6 FF E7 03 00 00
  vcan0  109   [8]  C7 01 52 00 00 00 00 00
  vcan0  101   [8]  9E 10 00 00 00 00 00 00
  vcan0  108   [8]  E9 FF E6 FF E7 03 00 00
  vcan0  106   [8]  C7 00 00 00 00 00 00 00
  vcan0  100   [8]  0D 02 00 00 00 00 00 00
  vcan0  109   [8]  CA 01 4F 00 00 00 00 00
  vcan0  101   [8]  A0 10 00 00 00 00 00 00
  vcan0  108   [8]  E8 FF E6 FF E7 03 00 00
  vcan0  109   [8]  CD 01 4C 00 00 00 00 00
  vcan0  101   [8]  A2 10 00 00 00 00 00 00
  vcan0  108   [8]  E7 FF E7 FF E7 03 00 00
  vcan0  106   [8]  C7 00 00 00 00 00 00 00
  vcan0  100   [8]  0D 02 00 00 00 00 00 00
  vcan0  101   [8]  A3 10 00 00 00 00 00 00
  vcan0  109   [8]  D0 01 49 00 00 00 00 00
  vcan0  108   [8]  E6 FF E7 FF E7 03 00 00
  vcan0  101   [8]  A5 10 00 00 00 00 00 00
  vcan0  109   [8]  D3 01 46 00 00 00 00 00
  vcan0  108   [8]  E6 FF E7 FF E7 03 00 00
  vcan0  106   [8]  C7 00 00 00 00 00 00 00
  vcan0  100   [8]  0E 02 00 00 00 00 00 00
  vcan0  109   [8]  D6 01 43 00 00 00 00 00
  vcan0  101   [8]  A7 10 00 00 00 00 00 00
  vcan0  108   [8]  E5 FF E8 FF E7 03 00 00
  vcan0  109   [8]  D9 01 40 00 00 00 00 00
  vcan0  101   [8]  A9 10 00 00 00 00 00 00
  vcan0  108   [8]  E4 FF E8 FF E7 03 00 00
  vcan0  106   [8]  C6 00 00 00 00 00 00 00
  vcan0  100   [8]  0E 02 00 00 00 00 00 00
  vcan0  109   [8]  DB 01 3D 00 00 00 00 00
  vcan0  101   [8]  AA 10 00 00 00 00 00 00
  vcan0  108   [8]  E3 FF E8 FF E7 03 00 00
  vcan0  103   [8]  98 01 D4 01 00 00 00 00
  vcan0  104   [8]  4A 01 22 01 36 01 00 00
  vcan0  105   [8]  BF 03 00 00 00 00 00 00
  vcan0  107   [8]  0B 02 00 00 00 00 00 00
  vcan0  102   [8]  D2 01 00 00 00 00 00 00
  vcan0  109   [8]  DE 01 3A 00 00 00 00 00
  vcan0  101   [8]  AC 10 00 00 00 00 00 00
  vcan0  108   [8]  E2 FF E9 FF E7 03 00 00
  vcan0  100   [8]  0E 02 00 00 00 00 00 00
  vcan0  106   [8]  C6 00 00 00 00 00 00 00
  vcan0  109   [8]  E0 01 37 00 00 00 00 00
  vcan0  101   [8]  AE 10 00 00 00 00 00 00
  vcan0  108   [8]  E1 FF E9 FF E7 03 00 00
  vcan0  101   [8]  AF 10 00 00 00 00 00 00
  vcan0  108   [8]  E0 FF E9 FF E7 03 00 00
  vcan0  109   [8]  E2 01 33 00 00 00 00 00
  vcan0  100   [8]  0F 02 00 00 00 00 00 00
  vcan0  106   [8]  C6 00 00 00 00 00 00 00
  vcan0  108   [8]  E0 FF EA FF E7 03 00 00
  vcan0  101   [8]  B1 10 00 00 00 00 00 00
  vcan0  109   [8]  E4 01 30 00 00 00 00 00
  vcan0  108   [8]  DF FF EA FF E7 03 00 00
  vcan0  109   [8]  E6 01 2D 00 00 00 00 00
  vcan0  101   [8]  B3 10 00 00 00 00 00 00
  vcan0  106   [8]  C6 00 00 00 00 00 00 00
  vcan0  100   [8]  0F 02 00 00 00 00 00 00
  vcan0  108   [8]  DE FF EB FF E7 03 00 00
  vcan0  109   [8]  E8 01 2A 00 00 00 00 00
  vcan0  101   [8]  B4 10 00 00 00 00 00 00
  vcan0  109   [8]  EA 01 27 00 00 00 00 00
  vcan0  108   [8]  DD FF EB FF E7 03 00 00
  vcan0  101   [8]  B6 10 00 00 00 00 00 00
  vcan0  106   [8]  C6 00 00 00 00 00 00 00
  vcan0  100   [8]  0F 02 00 00 00 00 00 00
  vcan0  109   [8]  EB 01 24 00 00 00 00 00
  vcan0  108   [8]  DD FF EC FF E7 03 00 00
  vcan0  101   [8]  B8 10 00 00 00 00 00 00
  vcan0  108   [8]  DC FF EC FF E7 03 00 00
  vcan0  109   [8]  EC 01 21 00 00 00 00 00
  vcan0  101   [8]  B9 10 00 00 00 00 00 00
  vcan0  100   [8]  10 02 00 00 00 00 00 00
  vcan0  106   [8]  C6 00 00 00 00 00 00 00
  vcan0  104   [8]  4A 01 22 01 36 01 00 00
  vcan0  105   [8]  BF 03 00 00 00 00 00 00
  vcan0  103   [8]  98 01 D4 01 00 00 00 00
  vcan0  102   [8]  D3 01 00 00 00 00 00 00
  vcan0  107   [8]  0C 02 00 00 00 00 00 00
  vcan0  109   [8]  EE 01 1E 00 00 00 00 00
  vcan0  101   [8]  BB 10 00 00 00 00 00 00
  vcan0  108   [8]  DB FF ED FF E7 03 00 00
  vcan0  108   [8]  DA FF ED FF E7 03 00 00
  vcan0  109   [8]  EF 01 1A 00 00 00 00 00
  vcan0  101   [8]  BD 10 00 00 00 00 00 00
  vcan0  100   [8]  10 02 00 00 00 00 00 00
  vcan0  106   [8]  C5 00 00 00 00 00 00 00
  vcan0  108   [8]  DA FF EE FF E7 03 00 00
  vcan0  109   [8]  F0 01 17 00 00 00 00 00
  vcan0  101   [8]  BE 10 00 00 00 00 00 00
  vcan0  108   [8]  D9 FF EE FF E7 03 00 00
  vcan0  101   [8]  C0 10 00 00 00 00 00 00
  vcan0  109   [8]  F1 01 14 00 00 00 00 00
  vcan0  100   [8]  10 02 00 00 00 00 00 00
  vcan0  106   [8]  C5 00 00 00 00 00 00 00
  vcan0  108   [8]  D8 FF EF FF E7 03 00 00
  vcan0  101   [8]  C2 10 00 00 00 00 00 00
  vcan0  109   [8]  F2 01 11 00 00 00 00 00
  vcan0  101   [8]  C3 10 00 00 00 00 00 00
  vcan0  109   [8]  F2 01 0E 00 00 00 00 00
  vcan0  108   [8]  D8 FF EF FF E7 03 00 00
  vcan0  100   [8]  11 02 00 00 00 00 00 00
  vcan0  106   [8]  C5 00 00 00 00 00 00 00
  vcan0  101   [8]  C5 10 00 00 00 00 00 00
  vcan0  109   [8]  F3 01 0B 00 00 00 00 00
  vcan0  108   [8]  D7 FF F0 FF E7 03 00 00
  vcan0  101   [8]  C6 10 00 00 00 00 00 00
  vcan0  109   [8]  F3 01 08 00 00 00 00 00
  vcan0  108   [8]  D7 FF F0 FF E7 03 00 00
  vcan0  100   [8]  11 02 00 00 00 00 00 00
  vcan0  106   [8]  C5 00 00 00 00 00 00 00
  vcan0  101   [8]  C8 10 00 00 00 00 00 00
  vcan0  109   [8]  F3 01 04 00 00 00 00 00
  vcan0  108   [8]  D6 FF F1 FF E7 03 00 00
  vcan0  108   [8]  D6 FF F1 FF E7 03 00 00
  vcan0  101   [8]  CA 10 00 00 00 00 00 00
  vcan0  109   [8]  F3 01 01 00 00 00 00 00
  vcan0  106   [8]  C5 00 00 00 00 00 00 00
  vcan0  100   [8]  11 02 00 00 00 00 00 00
  vcan0  104   [8]  4A 01 22 01 36 01 00 00
  vcan0  105   [8]  BF 03 00 00 00 00 00 00
  vcan0  102   [8]  D3 01 00 00 00 00 00 00
  vcan0  103   [8]  98 01 D4 01 00 00 00 00
  vcan0  107   [8]  0C 02 00 00 00 00 00 00
  vcan0  101   [8]  CB 10 00 00 00 00 00 00
  vcan0  109   [8]  F3 01 FF FF 00 00 00 00
  vcan0  108   [8]  D5 FF F2 FF E7 03 00 00
  vcan0  101   [8]  CD 10 00 00 00 00 00 00
